
SetupTitle, I/V Sweep - Unit (transfer)
PrimitiveTest, I/V Sweep
TestParameter, Context.MainFrame, B1500A
TestParameter, Channel.UnitType, SMU, SMU, SMU
TestParameter, Channel.Unit, SMU4:HR, SMU2:HR, SMU1:HR
TestParameter, Channel.IName, IG, ID, IS
TestParameter, Channel.VName, VG, VD, VS
TestParameter, Channel.Mode, V, V, COMMON
TestParameter, Channel.Func, VAR1, VAR2, CONST
TestParameter, Channel.Index, 
TestParameter, Channel.Time, 
TestParameter, Measurement.Port.Unit, SMU4:HR, SMU2:HR, SMU1:HR
TestParameter, Measurement.Port.SeriesResistor, NONE, NONE, NONE
TestParameter, Measurement.Port.Filter, ON, ON, ON
TestParameter, Measurement.Port.OutputVoltageComparison, 0, 0, 0
TestParameter, Measurement.Primary.Locus, Single
TestParameter, Measurement.Primary.Scale, LINEAR
TestParameter, Measurement.Primary.Start, -3
TestParameter, Measurement.Primary.Stop, 3
TestParameter, Measurement.Primary.Step, 0.06
TestParameter, Measurement.Primary.Compliance, 0.1
TestParameter, Measurement.Primary.PowerCompliance, 0
TestParameter, Measurement.Aborting.Condition, CONTINUE AT ANY
TestParameter, Measurement.PostOutput.Value, START
TestParameter, Measurement.PostOutput.Retention, OFF
TestParameter, Measurement.Secondary.Start, 0.1
TestParameter, Measurement.Secondary.Count, 5
TestParameter, Measurement.Secondary.Step, 0.70000000000000007
TestParameter, Measurement.Secondary.Compliance, 0.1
TestParameter, Measurement.Secondary.PowerCompliance, 0
TestParameter, Measurement.Bias.Source, -3, 0.1, 0
TestParameter, Measurement.Bias.Compliance, 0.1, 0.1, 0.1
TestParameter, Measurement.Monitor.Unit, SMU4:HR, SMU2:HR, SMU1:HR
TestParameter, Measurement.Monitor.Adc, HR ADC, HR ADC, HR ADC
TestParameter, Measurement.Monitor.Measurement, Compliance Side, Compliance Side, Compliance Side
TestParameter, Measurement.Monitor.RangingMode, LIMITED, LIMITED, LIMITED
TestParameter, Measurement.Monitor.RangeBoundary, 1nA, 1nA, 1nA
TestParameter, Measurement.Monitor.RangeRating, BY FULL RANGE, BY FULL RANGE, BY FULL RANGE
TestParameter, Measurement.Monitor.RangeRatingCoeff, 50, 50, 50
TestParameter, Measurement.Timing.Hold, 0
TestParameter, Measurement.Timing.Delay, 0
TestParameter, Measurement.Adc.HighSpeed.Mode, PLC
TestParameter, Measurement.Adc.HighSpeed.Coeff, 5
TestParameter, Measurement.Adc.HighResolution.AutoZero, OFF
TestParameter, Measurement.Adc.HighResolution.Mode, PLC
TestParameter, Measurement.Adc.HighResolution.Coeff, 5
TestParameter, Measurement.WaitTime.Source.Coeff, 1
TestParameter, Measurement.WaitTime.Source.Offset, 0
TestParameter, Measurement.WaitTime.Monitor.Coeff, 1
TestParameter, Measurement.WaitTime.Monitor.Offset, 0
TestParameter, Function.User.Name, SS
TestParameter, Function.User.Unit, mV/dec
TestParameter, Function.User.Definition, diff(VG,log(ID))*1000
TestParameter, Output.Graph.Enabled, true
TestParameter, Output.Graph.AutoScaling, false
TestParameter, Output.Graph.XAxis.Data, VG
TestParameter, Output.Graph.XAxis.Scale, Linear
TestParameter, Output.Graph.XAxis.Left, -3
TestParameter, Output.Graph.XAxis.Right, 3
TestParameter, Output.Graph.XAxis.RunTimeAutoScale, true
TestParameter, Output.Graph.YAxis.Data, ID, IG
TestParameter, Output.Graph.YAxis.Scale, Log, Log
TestParameter, Output.Graph.YAxis.Bottom, 0, 1E-15
TestParameter, Output.Graph.YAxis.Top, 0.0001, 1E-12
TestParameter, Output.Graph.YAxis.Group, , 
TestParameter, Output.Graph.YAxis.RunTimeAutoScale, true, true
TestParameter, Output.List.Data, VG, VD, VS, IG, ID, IS, SS
TestParameter, Output.Scalar.Data, SS
TestParameter, AutoAnalysis.Interpolation, false
TestParameter, AutoAnalysis.Var2StepCount, 1
TestParameter, AutoAnalysis.Var2StepScript, 
TestParameter, AutoAnalysis.Line1.Enabled, false
TestParameter, AutoAnalysis.Line1.Type, 1
TestParameter, AutoAnalysis.Line1.Fix, True
TestParameter, AutoAnalysis.Line1.YAxis, 0
TestParameter, AutoAnalysis.Line1.Point1.Type, 0
TestParameter, AutoAnalysis.Line1.Point1.XY.X, 
TestParameter, AutoAnalysis.Line1.Point1.XY.Y, 
TestParameter, AutoAnalysis.Line1.Point1.Data.Var, 
TestParameter, AutoAnalysis.Line1.Point1.Data.Condition, 
TestParameter, AutoAnalysis.Line1.Point1.Data.Start, false
TestParameter, AutoAnalysis.Line1.Point1.Data.StartVar, 
TestParameter, AutoAnalysis.Line1.Point1.Data.StartCondition, 
TestParameter, AutoAnalysis.Line1.Point2.Type, 0
TestParameter, AutoAnalysis.Line1.Point2.XY.X, 
TestParameter, AutoAnalysis.Line1.Point2.XY.Y, 
TestParameter, AutoAnalysis.Line1.Point2.Data.Var, 
TestParameter, AutoAnalysis.Line1.Point2.Data.Condition, 
TestParameter, AutoAnalysis.Line1.Point2.Data.Start, false
TestParameter, AutoAnalysis.Line1.Point2.Data.StartVar, 
TestParameter, AutoAnalysis.Line1.Point2.Data.StartCondition, 
TestParameter, AutoAnalysis.Line1.GradientExpr, 0
TestParameter, AutoAnalysis.Line2.Enabled, false
TestParameter, AutoAnalysis.Line2.Type, 1
TestParameter, AutoAnalysis.Line2.Fix, True
TestParameter, AutoAnalysis.Line2.YAxis, 0
TestParameter, AutoAnalysis.Line2.Point1.Type, 0
TestParameter, AutoAnalysis.Line2.Point1.XY.X, 
TestParameter, AutoAnalysis.Line2.Point1.XY.Y, 
TestParameter, AutoAnalysis.Line2.Point1.Data.Var, 
TestParameter, AutoAnalysis.Line2.Point1.Data.Condition, 
TestParameter, AutoAnalysis.Line2.Point1.Data.Start, false
TestParameter, AutoAnalysis.Line2.Point1.Data.StartVar, 
TestParameter, AutoAnalysis.Line2.Point1.Data.StartCondition, 
TestParameter, AutoAnalysis.Line2.Point2.Type, 0
TestParameter, AutoAnalysis.Line2.Point2.XY.X, 
TestParameter, AutoAnalysis.Line2.Point2.XY.Y, 
TestParameter, AutoAnalysis.Line2.Point2.Data.Var, 
TestParameter, AutoAnalysis.Line2.Point2.Data.Condition, 
TestParameter, AutoAnalysis.Line2.Point2.Data.Start, false
TestParameter, AutoAnalysis.Line2.Point2.Data.StartVar, 
TestParameter, AutoAnalysis.Line2.Point2.Data.StartCondition, 
TestParameter, AutoAnalysis.Line2.GradientExpr, 0
TestParameter, AutoAnalysis.Marker.Enabled, false
TestParameter, AutoAnalysis.Marker.Data.Var, 
TestParameter, AutoAnalysis.Marker.Data.Condition, 
TestParameter, AutoAnalysis.Marker.Data.Start, false
TestParameter, AutoAnalysis.Marker.Data.StartVar, 
TestParameter, AutoAnalysis.Marker.Data.StartCondition, 
MetaData, TestRecord.EntryPoint, true
MetaData, TestRecord.RecordTime, 04/09/2026 13:06:46
MetaData, TestRecord.TestTarget, 260331_WF02_#5_JUMBOFET_R1
MetaData, TestRecord.IterationIndex, 1
MetaData, TestRecord.Preservation, true
MetaData, TestRecord.Flag, 
MetaData, TestRecord.Remarks, 
MetaData, TestRecord.LinkKey, 884c2c30-0526-4822-9f6a-19f747830fe3
MetaData, TestRecord.Parameters, 
Dimension1, 101, 101, 101, 101, 101, 101, 101
Dimension2, 5, 5, 5, 5, 5, 5, 5
DataName, VG, VD, VS, IG, ID, IS, SS
DataValue, -3, 0.1, 0, -4.7154500000000004E-05, 5.1700900000000005E-05, 2.4200000000000003E-13, 717.07841553424532
DataValue, -2.94, 0.1, 0, -5.5099800000000004E-05, 5.6213000000000005E-05, 1.6000000000000003E-13, 1510.56085944319
DataValue, -2.88, 0.1, 0, -5.5308E-05, 5.59756E-05, 1.4E-13, -5244.9697957043263
DataValue, -2.82, 0.1, 0, -5.4481700000000004E-05, 5.49415E-05, 1.2000000000000002E-13, -2524.3062613497623
DataValue, -2.7600000000000002, 0.1, 0, -5.30984E-05, 5.33769E-05, 7.1E-14, -1875.2264626817544
DataValue, -2.7, 0.1, 0, -5.13409E-05, 5.15358E-05, 9.9000000000000007E-14, -1600.4001838769359
DataValue, -2.64, 0.1, 0, -4.9389000000000004E-05, 4.9521E-05, 1.0500000000000001E-13, -1421.2762891439666
DataValue, -2.58, 0.1, 0, -4.7290700000000004E-05, 4.73632E-05, 6.5E-14, -1296.9306423546332
DataValue, -2.52, 0.1, 0, -4.5111E-05, 4.51446E-05, 7.9E-14, -1207.9187773178637
DataValue, -2.46, 0.1, 0, -4.28861E-05, 4.28841E-05, 9.7E-14, -1134.5620303348505
DataValue, -2.4, 0.1, 0, -4.06395E-05, 4.06136E-05, 7.9E-14, -1074.3846376495774
DataValue, -2.34, 0.1, 0, -3.84021E-05, 3.83521E-05, 7E-14, -1020.7239841555462
DataValue, -2.2800000000000002, 0.1, 0, -3.6174500000000004E-05, 3.61089E-05, 6.0000000000000009E-14, -971.0762674180578
DataValue, -2.22, 0.1, 0, -3.39737E-05, 3.3893900000000004E-05, 5.9E-14, -927.26893205749548
DataValue, -2.16, 0.1, 0, -3.18159E-05, 3.17257E-05, 2.2E-14, -888.5688815648133
DataValue, -2.1, 0.1, 0, -2.9710100000000002E-05, 2.96122E-05, 3.1E-14, -851.188415081722
DataValue, -2.04, 0.1, 0, -2.7659900000000003E-05, 2.7554E-05, 7.8000000000000008E-14, -815.71135211538115
DataValue, -1.98, 0.1, 0, -2.5669700000000003E-05, 2.5561200000000002E-05, 1.1E-14, -783.61915386422754
DataValue, -1.92, 0.1, 0, -2.3753300000000002E-05, 2.36417E-05, 2.2E-14, -753.519090835955
DataValue, -1.86, 0.1, 0, -2.19098E-05, 2.17981E-05, 2.7000000000000002E-14, -723.585230733697
DataValue, -1.8, 0.1, 0, -2.0140700000000002E-05, 2.00288E-05, 4.0000000000000006E-14, -694.60461474639817
DataValue, -1.74, 0.1, 0, -1.84507E-05, 1.83396E-05, 4.1E-14, -667.1850791717967
DataValue, -1.68, 0.1, 0, -1.6841E-05, 1.67318E-05, 4E-15, -640.86259537368994
DataValue, -1.62, 0.1, 0, -1.53143E-05, 1.52079E-05, 7E-15, -615.58984672138433
DataValue, -1.56, 0.1, 0, -1.38714E-05, 1.37684E-05, -6.0000000000000005E-15, -591.84268625880088
DataValue, -1.5, 0.1, 0, -1.25154E-05, 1.24169E-05, -2.0000000000000003E-14, -568.23887009800774
DataValue, -1.44, 0.1, 0, -1.1242E-05, 1.11473E-05, -8E-15, -543.65456748183419
DataValue, -1.3800000000000001, 0.1, 0, -1.00528E-05, 9.95754E-06, 1.7E-14, -521.70982479263114
DataValue, -1.32, 0.1, 0, -8.93731E-06, 8.85679E-06, -5.8E-14, -502.25950854487047
DataValue, -1.26, 0.1, 0, -7.91908E-06, 7.84134E-06, 2.6000000000000003E-14, -482.68107303171996
DataValue, -1.2, 0.1, 0, -6.9797200000000008E-06, 6.9072600000000005E-06, 1.0000000000000002E-14, -462.38902880725453
DataValue, -1.1400000000000001, 0.1, 0, -6.11583E-06, 6.0489700000000005E-06, -2.2E-14, -442.22798969751335
DataValue, -1.08, 0.1, 0, -5.3270800000000005E-06, 5.2657300000000007E-06, -5.6E-14, -423.80858390174114
DataValue, -1.02, 0.1, 0, -4.6130500000000007E-06, 4.5573500000000005E-06, -2.6000000000000003E-14, -405.51951284930539
DataValue, -0.96, 0.1, 0, -3.96724E-06, 3.91691E-06, 1.8000000000000002E-14, -387.9259309481771
DataValue, -0.9, 0.1, 0, -3.38974E-06, 3.3447900000000003E-06, 8E-15, -370.77178481711303
DataValue, -0.84, 0.1, 0, -2.8739900000000005E-06, 2.8339E-06, -1.9E-14, -353.70460970304742
DataValue, -0.78, 0.1, 0, -2.41767E-06, 2.38247E-06, -6.1E-14, -338.47650565898141
DataValue, -0.72, 0.1, 0, -2.01865E-06, 1.98799E-06, -3.1E-14, -323.2121741703578
DataValue, -0.66, 0.1, 0, -1.6700100000000002E-06, 1.6435600000000002E-06, -3.6000000000000004E-14, -307.85515475004411
DataValue, -0.6, 0.1, 0, -1.36882E-06, 1.34626E-06, -2.6000000000000003E-14, -293.49691465299975
DataValue, -0.54, 0.1, 0, -1.1110500000000002E-06, 1.09199E-06, -2.8E-14, -277.19780953115571
DataValue, -0.48, 0.1, 0, -8.90171E-07, 8.73215E-07, -6.1E-14, -264.90079303876558
DataValue, -0.42, 0.1, 0, -7.07015E-07, 6.94198E-07, -7.6E-14, -254.30660264621585
DataValue, -0.36, 0.1, 0, -5.5526E-07, 5.44741E-07, -6.7E-14, -240.47108998867543
DataValue, -0.3, 0.1, 0, -4.2984899999999997E-07, 4.21465E-07, -5.6E-14, -226.79359769486118
DataValue, -0.24, 0.1, 0, -3.27418E-07, 3.20921E-07, -4.5000000000000004E-14, -211.3683195624441
DataValue, -0.18, 0.1, 0, -2.43786E-07, 2.38891E-07, -7.1E-14, -192.59566298047272
DataValue, -0.12, 0.1, 0, -1.75586E-07, 1.72109E-07, -4.0000000000000006E-14, -167.76872650296585
DataValue, -0.06, 0.1, 0, -1.1908099999999999E-07, 1.16832E-07, -1.22E-13, -131.32979077853236
DataValue, 0, 0.1, 0, -7.0275999999999987E-08, 6.90201E-08, -1.0200000000000001E-13, -80.802690288990817
DataValue, 0.06, 0.1, 0, -2.6783999999999997E-08, 2.64601E-08, -8.3000000000000012E-14, -71.25891055679044
DataValue, 0.12, 0.1, 0, 1.29152E-08, -1.2812199999999998E-08, -5.3E-14, 186.23497428735584
DataValue, 0.18, 0.1, 0, 5.0452899999999996E-08, -5.03997E-08, -1.3E-13, 61.866334109013941
DataValue, 0.24, 0.1, 0, 8.87664E-08, -8.91271E-08, -1.2100000000000002E-13, 122.61754542269227
DataValue, 0.3, 0.1, 0, 1.33152E-07, -1.34107E-07, -1.0200000000000001E-13, 159.05468476263991
DataValue, 0.36, 0.1, 0, 1.87595E-07, -1.89525E-07, -6.3000000000000009E-14, 180.6050921888239
DataValue, 0.42, 0.1, 0, 2.57407E-07, -2.60622E-07, -1.3800000000000002E-13, 194.1036737547374
DataValue, 0.48, 0.1, 0, 3.46876E-07, -3.5168899999999997E-07, -9.7E-14, 204.6932720652427
DataValue, 0.54, 0.1, 0, 4.61504E-07, -4.68396E-07, -1.0700000000000001E-13, 214.09095214857339
DataValue, 0.6, 0.1, 0, 6.06541E-07, -6.16006E-07, -8.2E-14, 224.17696830594275
DataValue, 0.66, 0.1, 0, 7.87446E-07, -7.9999499999999993E-07, -8.2E-14, 234.46459299991074
DataValue, 0.72, 0.1, 0, 1.011435E-06, -1.027682E-06, -1.17E-13, 237.5457475741153
DataValue, 0.78, 0.1, 0, 1.30198E-06, -1.3258E-06, -1.16E-13, 251.07526708654604
DataValue, 0.84, 0.1, 0, 1.6332800000000002E-06, -1.6574000000000002E-06, -1.3800000000000002E-13, 274.07805297859659
DataValue, 0.9, 0.1, 0, 2.0240100000000003E-06, -2.05412E-06, -1.36E-13, 285.76259082753563
DataValue, 0.96, 0.1, 0, 2.48567E-06, -2.52232E-06, -1.09E-13, 298.82026996194719
DataValue, 1.02, 0.1, 0, 3.0252600000000002E-06, -3.06923E-06, -1.3E-13, 312.84825719895292
DataValue, 1.08, 0.1, 0, 3.6499500000000005E-06, -3.7015500000000006E-06, -1.19E-13, 328.1083697244992
DataValue, 1.1400000000000001, 0.1, 0, 4.36438E-06, -4.4245100000000004E-06, -1E-13, 343.738072120086
DataValue, 1.2, 0.1, 0, 5.17903E-06, -5.2480400000000007E-06, -1.4900000000000002E-13, 359.57228259953723
DataValue, 1.26, 0.1, 0, 6.0989100000000009E-06, -6.17735E-06, -1.3200000000000002E-13, 376.34189982294674
DataValue, 1.32, 0.1, 0, 7.1304900000000007E-06, -7.218980000000001E-06, -1.6800000000000002E-13, 393.82903019245384
DataValue, 1.3800000000000001, 0.1, 0, 8.2785100000000011E-06, -8.37784E-06, -1.19E-13, 411.9908674273351
DataValue, 1.44, 0.1, 0, 9.5499400000000009E-06, -9.6598900000000015E-06, -1.6100000000000002E-13, 430.84405472863619
DataValue, 1.5, 0.1, 0, 1.0948680000000001E-05, -1.1068610000000002E-05, -1.5500000000000002E-13, 436.45617627918051
DataValue, 1.56, 0.1, 0, 1.25702E-05, -1.27168E-05, -1.64E-13, 459.59558687392683
DataValue, 1.62, 0.1, 0, 1.42336E-05, -1.4371E-05, -1.83E-13, 498.73054307536592
DataValue, 1.68, 0.1, 0, 1.6024E-05, -1.61761E-05, -1.5500000000000002E-13, 517.99936561932645
DataValue, 1.74, 0.1, 0, 1.79526E-05, -1.81174E-05, -1.7200000000000002E-13, 538.68092506555968
DataValue, 1.8, 0.1, 0, 2.00317E-05, -2.02125E-05, -1.58E-13, 560.29525694597328
DataValue, 1.86, 0.1, 0, 2.22566E-05, -2.2444500000000002E-05, -1.16E-13, 582.99995708201914
DataValue, 1.92, 0.1, 0, 2.46242E-05, -2.4832000000000002E-05, -1.7800000000000002E-13, 605.0891305759111
DataValue, 1.98, 0.1, 0, 2.71533E-05, -2.7367700000000002E-05, -1.7300000000000002E-13, 628.3848935750641
DataValue, 2.04, 0.1, 0, 2.98282E-05, -3.00571E-05, -1.9500000000000003E-13, 652.6924484086336
DataValue, 2.1, 0.1, 0, 3.26561E-05, -3.28916E-05, -1.9500000000000003E-13, 677.18655394566667
DataValue, 2.16, 0.1, 0, 3.56342E-05, -3.58844E-05, -1.65E-13, 703.12212357804231
DataValue, 2.22, 0.1, 0, 3.8748800000000004E-05, -3.90126E-05, -1.99E-13, 728.94474172171874
DataValue, 2.2800000000000002, 0.1, 0, 4.20302E-05, -4.2305800000000004E-05, -1.7400000000000002E-13, 755.990791564751
DataValue, 2.34, 0.1, 0, 4.54561E-05, -4.5723700000000004E-05, -1.42E-13, 786.368488994704
DataValue, 2.4, 0.1, 0, 4.89926E-05, -4.92803E-05, -1.87E-13, 814.23835341066047
DataValue, 2.46, 0.1, 0, 5.26876E-05, -5.29842E-05, -2.34E-13, 836.53268942478121
DataValue, 2.52, 0.1, 0, 5.6543300000000005E-05, -5.68817E-05, -2.35E-13, 867.47445408177714
DataValue, 2.58, 0.1, 0, 6.05502E-05, -6.0844800000000004E-05, -1.99E-13, 895.21704399056216
DataValue, 2.64, 0.1, 0, 6.4697400000000008E-05, -6.50411E-05, -1.6000000000000003E-13, 932.44955575596214
DataValue, 2.7, 0.1, 0, 6.89338E-05, -6.92013E-05, -1.6700000000000002E-13, 968.77738229131864
DataValue, 2.7600000000000002, 0.1, 0, 7.3254100000000007E-05, -7.36178E-05, -2.2200000000000001E-13, 984.98558290172627
DataValue, 2.82, 0.1, 0, 7.78368E-05, -7.81671E-05, -2.24E-13, 1008.6154980822963
DataValue, 2.88, 0.1, 0, 8.25554E-05, -8.29188E-05, -2.1300000000000003E-13, 1038.6792710427044
DataValue, 2.94, 0.1, 0, 8.72922E-05, -8.77402E-05, -1.76E-13, 1045.5504010186512
DataValue, 3, 0.1, 0, 9.24987E-05, -9.30032E-05, -2.0200000000000002E-13, 1029.9770358911519
DataValue, -3, 0.8, 0, -0.00010741300000000001, 0.00010868600000000001, 3.19E-13, -1222.1378685056488
DataValue, -2.94, 0.8, 0, -0.000104233, 0.000103479, 2.0700000000000003E-13, -1034.7601728909801
DataValue, -2.88, 0.8, 0, -9.7778E-05, 9.67852E-05, 1.77E-13, -898.63349423802333
DataValue, -2.82, 0.8, 0, -9.13648E-05, 9.05437E-05, 1.3800000000000002E-13, -911.67676840843842
DataValue, -2.7600000000000002, 0.8, 0, -8.55182E-05, 8.48486E-05, 1.22E-13, -940.33226958238026
DataValue, -2.7, 0.8, 0, -8.02479E-05, 7.96959E-05, 8.0000000000000013E-14, -977.67174517360661
DataValue, -2.64, 0.8, 0, -7.54746E-05, 7.5048E-05, 6.6000000000000009E-14, -1008.9375776689558
DataValue, -2.58, 0.8, 0, -7.1112400000000007E-05, 7.07591E-05, 2.0000000000000003E-14, -1031.9153353477648
DataValue, -2.52, 0.8, 0, -6.70903E-05, 6.68091E-05, 7.9E-14, -1053.5727765462582
DataValue, -2.46, 0.8, 0, -6.33712E-05, 6.31418E-05, 7.9E-14, -1067.6626117500859
DataValue, -2.4, 0.8, 0, -5.9892900000000004E-05, 5.97067E-05, 1.1E-14, -1077.5340876862531
DataValue, -2.34, 0.8, 0, -5.6641700000000004E-05, 5.6487400000000004E-05, 3.9000000000000004E-14, -1076.969385589676
DataValue, -2.2800000000000002, 0.8, 0, -5.35472E-05, 5.34112E-05, 4.8000000000000004E-14, -1069.1155822316155
DataValue, -2.22, 0.8, 0, -5.06102E-05, 5.049E-05, 9.7E-14, -1058.4221050758847
DataValue, -2.16, 0.8, 0, -4.7794700000000005E-05, 4.7686300000000005E-05, 3.6000000000000004E-14, -1041.9729103188176
DataValue, -2.1, 0.8, 0, -4.51002E-05, 4.4997600000000004E-05, 1.6E-14, -1022.4214268423448
DataValue, -2.04, 0.8, 0, -4.25043E-05, 4.24054E-05, 1.5000000000000002E-14, -999.918353762962
DataValue, -1.98, 0.8, 0, -4.0003300000000004E-05, 3.99089E-05, -1.1E-14, -975.23880130215559
DataValue, -1.92, 0.8, 0, -3.75884E-05, 3.74958E-05, -6.0000000000000005E-15, -950.15618155081518
DataValue, -1.86, 0.8, 0, -3.52681E-05, 3.51739E-05, -4E-15, -922.13093962447226
DataValue, -1.8, 0.8, 0, -3.30158E-05, 3.2920500000000004E-05, -1.6E-14, -891.29539494165169
DataValue, -1.74, 0.8, 0, -3.0840300000000004E-05, 3.07432E-05, -2.3000000000000003E-14, -861.97973795617838
DataValue, -1.68, 0.8, 0, -2.87409E-05, 2.86422E-05, -2.5E-14, -833.428949456346
DataValue, -1.62, 0.8, 0, -2.67208E-05, 2.66206E-05, 5.2000000000000006E-14, -804.85800401699362
DataValue, -1.56, 0.8, 0, -2.47758E-05, 2.46749E-05, -1.2000000000000001E-14, -777.672573071216
DataValue, -1.5, 0.8, 0, -2.2914400000000002E-05, 2.2814100000000002E-05, -3.7E-14, -749.8299875285843
DataValue, -1.44, 0.8, 0, -2.1127E-05, 2.10258E-05, -1.8000000000000002E-14, -721.04859276905734
DataValue, -1.3800000000000001, 0.8, 0, -1.9416200000000002E-05, 1.93164E-05, -1.3000000000000001E-14, -695.62111792536757
DataValue, -1.32, 0.8, 0, -1.77925E-05, 1.76943E-05, -5.2000000000000006E-14, -670.03041376007275
DataValue, -1.26, 0.8, 0, -1.62461E-05, 1.6149E-05, -4.1E-14, -644.8992960599287
DataValue, -1.2, 0.8, 0, -1.47836E-05, 1.469E-05, -6.3000000000000009E-14, -620.61200725140429
DataValue, -1.1400000000000001, 0.8, 0, -1.34009E-05, 1.3309800000000001E-05, -4.9000000000000006E-14, -595.699032073748
DataValue, -1.08, 0.8, 0, -1.2097600000000001E-05, 1.20098E-05, -6.1E-14, -573.19537986530042
DataValue, -1.02, 0.8, 0, -1.08796E-05, 1.07957E-05, -2.5E-14, -548.28170774455361
DataValue, -0.96, 0.8, 0, -9.7304300000000013E-06, 9.64903E-06, -7.8000000000000008E-14, -527.710678279392
DataValue, -0.9, 0.8, 0, -8.6737000000000013E-06, 8.5999E-06, -4.5000000000000004E-14, -509.1206472687968
DataValue, -0.84, 0.8, 0, -7.69285E-06, 7.6229000000000012E-06, -3.9000000000000004E-14, -487.03248334628273
