
SetupTitle, I/V List Sweep - Step Marking (ISRC)_PGMVG=-4V
PrimitiveTest, I/V List Sweep
TestParameter, Channel.UnitType, SMU, SMU, SMU, SMU
TestParameter, Channel.Unit, SMU3:HR, SMU2:HR, SMU4:HR, SMU1:HR
TestParameter, Channel.IName, IG_PGM, ID_PGM, ID_READ, IS_READ
TestParameter, Channel.VName, VG_PGM, VD_PGM, VD_READ, VS_READ
TestParameter, Channel.Mode, V, V, V, COMMON
TestParameter, Channel.Func, VAR1, VAR1, CONST, CONST
TestParameter, Channel.Index, index
TestParameter, Channel.Time, time
TestParameter, Measurement.Port.Unit, SMU3:HR, SMU2:HR, SMU4:HR, SMU1:HR
TestParameter, Measurement.Port.SeriesResistor, NONE, NONE, NONE, NONE
TestParameter, Measurement.Port.Filter, ON, ON, ON, ON
TestParameter, Measurement.Port.OutputVoltageComparison, 0, 0, 0, 0
TestParameter, Measurement.Primary.Sources
TestParameter, Measurement.Primary.Compliance, 0.1, 0.1
TestParameter, Measurement.Primary.PowerCompliance, 0, 0
TestParameter, Measurement.Aborting.Condition, CONTINUE AT ANY
TestParameter, Measurement.PostOutput.Retention, OFF
TestParameter, Measurement.Bias.Source, 2, 1.5, 0.1, 0
TestParameter, Measurement.Bias.Compliance, 0.1, 0.1, 0.1, 0.1
TestParameter, Measurement.Pulse.Period, 
TestParameter, Measurement.Pulse.MeasurementDelay, 0
TestParameter, Measurement.Pulse.AveragingCount, 1
TestParameter, Measurement.Monitor.Unit, SMU2:HR, SMU3:HR, SMU4:HR, SMU1:HR
TestParameter, Measurement.Monitor.Adc, HR ADC, HR ADC, HR ADC, HR ADC
TestParameter, Measurement.Monitor.Measurement, Compliance Side, Compliance Side, Compliance Side, Compliance Side
TestParameter, Measurement.Monitor.RangingMode, LIMITED, LIMITED, LIMITED, LIMITED
TestParameter, Measurement.Monitor.RangeBoundary, 1nA, 1nA, 1nA, 1nA
TestParameter, Measurement.Monitor.RangeRating, BY FULL RANGE, BY FULL RANGE, BY FULL RANGE, BY FULL RANGE
TestParameter, Measurement.Monitor.RangeRatingCoeff, 50, 50, 50, 50
TestParameter, Measurement.Timing.Hold, 0
TestParameter, Measurement.Timing.Delay
TestParameter, Measurement.Adc.HighSpeed.Mode, PLC
TestParameter, Measurement.Adc.HighSpeed.Coeff, 10
TestParameter, Measurement.Adc.HighResolution.AutoZero, OFF
TestParameter, Measurement.Adc.HighResolution.Mode, PLC
TestParameter, Measurement.Adc.HighResolution.Coeff, 10
TestParameter, Measurement.WaitTime.Source.Coeff, 1
TestParameter, Measurement.WaitTime.Source.Offset, 0
TestParameter, Measurement.WaitTime.Monitor.Coeff, 1
TestParameter, Measurement.WaitTime.Monitor.Offset, 0
TestParameter, Output.Graph.Enabled, true
TestParameter, Output.Graph.AutoScaling, false
TestParameter, Output.Graph.XAxis.Data, time
TestParameter, Output.Graph.XAxis.Scale, Linear
TestParameter, Output.Graph.XAxis.Left, 0
TestParameter, Output.Graph.XAxis.Right, 500
TestParameter, Output.Graph.XAxis.RunTimeAutoScale, true
TestParameter, Output.Graph.YAxis.Data, ID_READ, ID_READ
TestParameter, Output.Graph.YAxis.Scale, Log, Linear
TestParameter, Output.Graph.YAxis.Bottom, 0, 0
TestParameter, Output.Graph.YAxis.Top, 0.1, 0.1
TestParameter, Output.Graph.YAxis.Group, , 
TestParameter, Output.Graph.YAxis.RunTimeAutoScale, false, true
TestParameter, Output.List.Data, VD_PGM, VG_PGM, VD_READ, VS_READ, time, ID_PGM, IG_PGM, ID_READ, IS_READ
TestParameter, AutoAnalysis.Interpolation, false
TestParameter, AutoAnalysis.Var2StepCount, 1
TestParameter, AutoAnalysis.Var2StepScript, 
TestParameter, AutoAnalysis.Line1.Enabled, false
TestParameter, AutoAnalysis.Line1.Type, 1
TestParameter, AutoAnalysis.Line1.Fix, True
TestParameter, AutoAnalysis.Line1.YAxis, 0
TestParameter, AutoAnalysis.Line1.Point1.Type, 0
TestParameter, AutoAnalysis.Line1.Point1.XY.X, 
TestParameter, AutoAnalysis.Line1.Point1.XY.Y, 
TestParameter, AutoAnalysis.Line1.Point1.Data.Var, 
TestParameter, AutoAnalysis.Line1.Point1.Data.Condition, 
TestParameter, AutoAnalysis.Line1.Point1.Data.Start, false
TestParameter, AutoAnalysis.Line1.Point1.Data.StartVar, 
TestParameter, AutoAnalysis.Line1.Point1.Data.StartCondition, 
TestParameter, AutoAnalysis.Line1.Point2.Type, 0
TestParameter, AutoAnalysis.Line1.Point2.XY.X, 
TestParameter, AutoAnalysis.Line1.Point2.XY.Y, 
TestParameter, AutoAnalysis.Line1.Point2.Data.Var, 
TestParameter, AutoAnalysis.Line1.Point2.Data.Condition, 
TestParameter, AutoAnalysis.Line1.Point2.Data.Start, false
TestParameter, AutoAnalysis.Line1.Point2.Data.StartVar, 
TestParameter, AutoAnalysis.Line1.Point2.Data.StartCondition, 
TestParameter, AutoAnalysis.Line1.GradientExpr, 0
TestParameter, AutoAnalysis.Line2.Enabled, false
TestParameter, AutoAnalysis.Line2.Type, 1
TestParameter, AutoAnalysis.Line2.Fix, True
TestParameter, AutoAnalysis.Line2.YAxis, 0
TestParameter, AutoAnalysis.Line2.Point1.Type, 0
TestParameter, AutoAnalysis.Line2.Point1.XY.X, 
TestParameter, AutoAnalysis.Line2.Point1.XY.Y, 
TestParameter, AutoAnalysis.Line2.Point1.Data.Var, 
TestParameter, AutoAnalysis.Line2.Point1.Data.Condition, 
TestParameter, AutoAnalysis.Line2.Point1.Data.Start, false
TestParameter, AutoAnalysis.Line2.Point1.Data.StartVar, 
TestParameter, AutoAnalysis.Line2.Point1.Data.StartCondition, 
TestParameter, AutoAnalysis.Line2.Point2.Type, 0
TestParameter, AutoAnalysis.Line2.Point2.XY.X, 
TestParameter, AutoAnalysis.Line2.Point2.XY.Y, 
TestParameter, AutoAnalysis.Line2.Point2.Data.Var, 
TestParameter, AutoAnalysis.Line2.Point2.Data.Condition, 
TestParameter, AutoAnalysis.Line2.Point2.Data.Start, false
TestParameter, AutoAnalysis.Line2.Point2.Data.StartVar, 
TestParameter, AutoAnalysis.Line2.Point2.Data.StartCondition, 
TestParameter, AutoAnalysis.Line2.GradientExpr, 0
TestParameter, AutoAnalysis.Marker.Enabled, false
TestParameter, AutoAnalysis.Marker.Data.Var, 
TestParameter, AutoAnalysis.Marker.Data.Condition, 
TestParameter, AutoAnalysis.Marker.Data.Start, false
TestParameter, AutoAnalysis.Marker.Data.StartVar, 
TestParameter, AutoAnalysis.Marker.Data.StartCondition, 
MetaData, TestRecord.EntryPoint, true
MetaData, TestRecord.RecordTime, 04/09/2026 12:45:01
MetaData, TestRecord.TestTarget, 260331_WF02_#5_2T1C_R0_RETENTION
MetaData, TestRecord.IterationIndex, 1
MetaData, TestRecord.Preservation, true
MetaData, TestRecord.Flag, 
MetaData, TestRecord.Remarks, 
MetaData, TestRecord.LinkKey, 0717d933-fbd4-4c7a-aabf-063a2c7a2fff
MetaData, TestRecord.Parameters, 
Dimension1, 200, 200, 200, 200, 200, 200, 200, 200, 200
Dimension2, 1, 1, 1, 1, 1, 1, 1, 1, 1
DataName, VG_PGM, VD_PGM, VD_READ, VS_READ, time, ID_PGM, IG_PGM, ID_READ, IS_READ
DataValue, 2, 1.5, 0.1, 0, 0.09426000000000001, 4.591E-12, 1.3990000000000002E-12, 5.61137E-07, -5.56137E-07
DataValue, 2, 1.5, 0.1, 0, 1.0830300000000002, 1.458E-12, 6.9900000000000005E-13, 5.42586E-07, -5.40192E-07
DataValue, 2, 1.5, 0.1, 0, 1.9948100000000002, 9.9300000000000011E-13, 5.16E-13, 5.31043E-07, -5.29289E-07
DataValue, 2, 1.5, 0.1, 0, 2.90669, 7.4300000000000007E-13, 3.74E-13, 5.22205E-07, -5.20728E-07
DataValue, 2, 1.5, 0.1, 0, 3.8183400000000005, 6.2700000000000005E-13, 3.18E-13, 5.1493099999999994E-07, -5.13698E-07
DataValue, -4, 1.5, 0.1, 0, 4.73148, 1.425E-12, -5.054E-12, 4.85086E-07, -4.83019E-07
DataValue, -4, 1.5, 0.1, 0, 5.6431900000000006, 5.3100000000000006E-13, -2.6090000000000003E-12, 4.75043E-07, -4.7344699999999996E-07
DataValue, -4, 1.5, 0.1, 0, 6.5549000000000008, 4.5800000000000007E-13, -1.8650000000000002E-12, 4.6687E-07, -4.65493E-07
DataValue, -4, 1.5, 0.1, 0, 7.466870000000001, 3.9400000000000004E-13, -1.5390000000000002E-12, 4.59673E-07, -4.58437E-07
DataValue, -4, 1.5, 0.1, 0, 8.3788100000000014, 3.8500000000000003E-13, -1.3150000000000002E-12, 4.53173E-07, -4.52006E-07
DataValue, -4, 0, 0.1, 0, 9.29359, -2.019E-12, -1.103E-12, 4.47139E-07, -4.4608899999999997E-07
DataValue, -4, 0, 0.1, 0, 10.20517, -5.0300000000000008E-13, -1.053E-12, 4.41608E-07, -4.40591E-07
DataValue, -4, 0, 0.1, 0, 11.11705, -1.9600000000000002E-13, -9.8700000000000014E-13, 4.36411E-07, -4.3549299999999997E-07
DataValue, -4, 0, 0.1, 0, 12.028690000000001, -8.0000000000000013E-14, -9.3100000000000017E-13, 4.31605E-07, -4.30734E-07
DataValue, -4, 0, 0.1, 0, 12.940360000000002, -2.0000000000000003E-14, -8.7400000000000011E-13, 4.27019E-07, -4.2617E-07
DataValue, -4, 0, 0.1, 0, 13.852300000000001, 2.6000000000000003E-14, -8.45E-13, 4.22674E-07, -4.21904E-07
DataValue, -4, 0, 0.1, 0, 14.76401, 2.6000000000000003E-14, -8.3100000000000009E-13, 4.1851E-07, -4.17745E-07
DataValue, -4, 0, 0.1, 0, 15.675920000000001, 2.6000000000000003E-14, -7.98E-13, 4.14567E-07, -4.1382E-07
DataValue, -4, 0, 0.1, 0, 16.58765, 6.2E-14, -7.3E-13, 4.1084E-07, -4.10149E-07
DataValue, -4, 0, 0.1, 0, 17.499260000000003, 9.6000000000000007E-14, -7.4300000000000007E-13, 4.07162E-07, -4.06488E-07
DataValue, -4, 0, 0.1, 0, 18.41099, 1.16E-13, -6.9000000000000009E-13, 4.03669E-07, -4.0302599999999997E-07
DataValue, -4, 0, 0.1, 0, 19.32269, 8.2E-14, -6.9400000000000007E-13, 4.00219E-07, -3.99625E-07
DataValue, -4, 0, 0.1, 0, 20.23432, 9.5000000000000012E-14, -6.880000000000001E-13, 3.9697699999999997E-07, -3.96383E-07
DataValue, -4, 0, 0.1, 0, 21.146, 1.12E-13, -6.410000000000001E-13, 3.93811E-07, -3.93219E-07
DataValue, -4, 0, 0.1, 0, 22.05769, 1.0700000000000001E-13, -6.32E-13, 3.90747E-07, -3.9018399999999997E-07
DataValue, -4, 0, 0.1, 0, 22.9693, 1.1500000000000002E-13, -6.58E-13, 3.87813E-07, -3.87256E-07
DataValue, -4, 0, 0.1, 0, 23.880950000000002, 9.6000000000000007E-14, -6.1800000000000009E-13, 3.84969E-07, -3.8443E-07
DataValue, -4, 0, 0.1, 0, 24.79277, 1.09E-13, -6.52E-13, 3.82137E-07, -3.8161699999999997E-07
DataValue, -4, 0, 0.1, 0, 25.70437, 1.0200000000000001E-13, -6.12E-13, 3.79455E-07, -3.78937E-07
DataValue, -4, 0, 0.1, 0, 26.615930000000002, 1.16E-13, -6.14E-13, 3.76851E-07, -3.7636E-07
DataValue, -4, 0, 0.1, 0, 27.527600000000003, 1.0800000000000001E-13, -6.36E-13, 3.74223E-07, -3.7372899999999997E-07
DataValue, -4, 0, 0.1, 0, 28.439390000000003, 1.4E-13, -5.86E-13, 3.7171699999999997E-07, -3.71256E-07
DataValue, -4, 0, 0.1, 0, 29.35105, 1.29E-13, -6.08E-13, 3.69309E-07, -3.68845E-07
DataValue, -4, 0, 0.1, 0, 30.262620000000002, 1.19E-13, -5.9600000000000009E-13, 3.66902E-07, -3.66409E-07
DataValue, -4, 0, 0.1, 0, 31.17443, 1.34E-13, -6.12E-13, 3.64581E-07, -3.64107E-07
DataValue, -4, 0, 0.1, 0, 32.086090000000006, 1.34E-13, -5.68E-13, 3.62275E-07, -3.6187E-07
DataValue, -4, 0, 0.1, 0, 32.997960000000006, 1.4500000000000001E-13, -5.91E-13, 3.60064E-07, -3.5965199999999997E-07
DataValue, -4, 0, 0.1, 0, 33.909530000000004, 1.3300000000000001E-13, -5.66E-13, 3.57882E-07, -3.57443E-07
DataValue, -4, 0, 0.1, 0, 34.821380000000005, 1.25E-13, -5.58E-13, 3.55766E-07, -3.55368E-07
DataValue, -4, 0, 0.1, 0, 35.73313, 1.24E-13, -5.7900000000000006E-13, 3.5367799999999997E-07, -3.5328E-07
DataValue, -4, 0, 0.1, 0, 36.64502, 1.2700000000000001E-13, -5.62E-13, 3.5159E-07, -3.51216E-07
DataValue, -4, 0, 0.1, 0, 37.556720000000006, 1.4400000000000002E-13, -5.63E-13, 3.4956599999999997E-07, -3.49189E-07
DataValue, -4, 0, 0.1, 0, 38.46875, 1.18E-13, -5.5300000000000007E-13, 3.47607E-07, -3.47243E-07
DataValue, -4, 0, 0.1, 0, 39.3804, 1.1300000000000001E-13, -5.63E-13, 3.45691E-07, -3.45342E-07
DataValue, -4, 0, 0.1, 0, 40.29214, 1.22E-13, -5.35E-13, 3.4377599999999997E-07, -3.43423E-07
DataValue, -4, 0, 0.1, 0, 41.20376, 1.1000000000000001E-13, -5.2900000000000007E-13, 3.41924E-07, -3.41589E-07
DataValue, -4, 0, 0.1, 0, 42.11536, 9.5000000000000012E-14, -5.36E-13, 3.40098E-07, -3.39759E-07
DataValue, -4, 0, 0.1, 0, 43.02698, 1.3E-13, -5.1E-13, 3.38349E-07, -3.38E-07
DataValue, -4, 0, 0.1, 0, 43.938810000000004, 9.9000000000000007E-14, -5.3300000000000005E-13, 3.36598E-07, -3.3624099999999997E-07
DataValue, -4, 0, 0.1, 0, 44.850480000000005, 1.16E-13, -5.14E-13, 3.34787E-07, -3.34461E-07
DataValue, -4, 0, 0.1, 0, 45.7623, 1.4300000000000002E-13, -5.57E-13, 3.33064E-07, -3.32759E-07
DataValue, -4, 0, 0.1, 0, 46.673890000000007, 1.3300000000000001E-13, -5.2900000000000007E-13, 3.3139E-07, -3.31033E-07
DataValue, -4, 0, 0.1, 0, 47.585480000000004, 1.1100000000000001E-13, -5.3200000000000006E-13, 3.29727E-07, -3.29424E-07
DataValue, -4, 0, 0.1, 0, 48.497370000000004, 9.3000000000000008E-14, -5.0800000000000006E-13, 3.2808999999999997E-07, -3.27767E-07
DataValue, -4, 0, 0.1, 0, 49.40921, 1E-13, -4.94E-13, 3.26509E-07, -3.26204E-07
DataValue, -4, 0, 0.1, 0, 50.32077, 1.18E-13, -5.2600000000000008E-13, 3.24889E-07, -3.24587E-07
DataValue, -4, 0, 0.1, 0, 51.232440000000004, 1.18E-13, -5.16E-13, 3.23329E-07, -3.23051E-07
DataValue, -4, 0, 0.1, 0, 52.14403, 1E-13, -5.17E-13, 3.21777E-07, -3.21504E-07
DataValue, -4, 0, 0.1, 0, 53.055620000000005, 1.3E-13, -4.98E-13, 3.20229E-07, -3.19938E-07
DataValue, -4, 0, 0.1, 0, 53.967320000000008, 1.09E-13, -5.19E-13, 3.18784E-07, -3.18478E-07
DataValue, -4, 0, 0.1, 0, 54.87926, 7.6E-14, -5.1E-13, 3.17334E-07, -3.17034E-07
DataValue, -4, 0, 0.1, 0, 55.791140000000006, 1.0100000000000001E-13, -4.8500000000000005E-13, 3.15847E-07, -3.15573E-07
DataValue, -4, 0, 0.1, 0, 56.70291, 1E-13, -4.97E-13, 3.14401E-07, -3.14112E-07
DataValue, -4, 0, 0.1, 0, 57.6146, 1.0500000000000001E-13, -5.0400000000000007E-13, 3.12977E-07, -3.12724E-07
DataValue, -4, 0, 0.1, 0, 58.526250000000005, 9.5000000000000012E-14, -4.99E-13, 3.11532E-07, -3.1127E-07
DataValue, -4, 0, 0.1, 0, 59.43793, 9.4E-14, -5.0600000000000007E-13, 3.10159E-07, -3.09917E-07
DataValue, -4, 0, 0.1, 0, 60.349500000000006, 1.06E-13, -4.8200000000000007E-13, 3.08746E-07, -3.08496E-07
DataValue, -4, 0, 0.1, 0, 61.261160000000004, 8.6000000000000012E-14, -4.97E-13, 3.0745399999999997E-07, -3.07183E-07
DataValue, -4, 0, 0.1, 0, 62.172830000000005, 9.5000000000000012E-14, -4.8400000000000006E-13, 3.06122E-07, -3.05854E-07
DataValue, -4, 0, 0.1, 0, 63.08449, 9.8000000000000012E-14, -5.0300000000000008E-13, 3.04784E-07, -3.04526E-07
DataValue, -4, 0, 0.1, 0, 63.996170000000006, 1.0700000000000001E-13, -4.88E-13, 3.03448E-07, -3.03186E-07
DataValue, -4, 0, 0.1, 0, 64.907840000000007, 9.2000000000000012E-14, -5.0700000000000006E-13, 3.02163E-07, -3.0194599999999997E-07
DataValue, -4, 0, 0.1, 0, 65.81939, 9.5000000000000012E-14, -4.86E-13, 3.00909E-07, -3.0066299999999997E-07
DataValue, -4, 0, 0.1, 0, 66.73103, 6.5E-14, -4.76E-13, 2.9965E-07, -2.99448E-07
DataValue, -4, 0, 0.1, 0, 67.642710000000008, 1.1300000000000001E-13, -4.68E-13, 2.9844E-07, -2.98203E-07
DataValue, -4, 0, 0.1, 0, 68.554510000000008, 8.0000000000000013E-14, -4.67E-13, 2.97242E-07, -2.96971E-07
DataValue, -4, 0, 0.1, 0, 69.46611, 8.4000000000000008E-14, -4.93E-13, 2.9596999999999997E-07, -2.95749E-07
DataValue, -4, 0, 0.1, 0, 70.37802, 1.0100000000000001E-13, -4.9E-13, 2.948E-07, -2.94554E-07
DataValue, -4, 0, 0.1, 0, 71.289600000000007, 9.7E-14, -5.0200000000000008E-13, 2.9356699999999997E-07, -2.93348E-07
DataValue, -4, 0, 0.1, 0, 72.20135, 1E-13, -5.0800000000000006E-13, 2.92349E-07, -2.92113E-07
DataValue, -4, 0, 0.1, 0, 73.113170000000011, 9.4E-14, -4.8400000000000006E-13, 2.91217E-07, -2.90981E-07
DataValue, -4, 0, 0.1, 0, 74.024750000000012, 9.9000000000000007E-14, -4.66E-13, 2.9006E-07, -2.89841E-07
DataValue, -4, 0, 0.1, 0, 74.93638, 1.0400000000000001E-13, -4.94E-13, 2.88882E-07, -2.8866499999999997E-07
DataValue, -4, 0, 0.1, 0, 75.848250000000007, 1.09E-13, -4.74E-13, 2.87773E-07, -2.87552E-07
DataValue, -4, 0, 0.1, 0, 76.75996, 8.6000000000000012E-14, -4.76E-13, 2.86679E-07, -2.86457E-07
DataValue, -4, 0, 0.1, 0, 77.67165, 8.9000000000000012E-14, -4.92E-13, 2.85523E-07, -2.85298E-07
DataValue, -4, 0, 0.1, 0, 78.58333, 7.6E-14, -4.68E-13, 2.84399E-07, -2.84213E-07
DataValue, -4, 0, 0.1, 0, 79.495010000000008, 7.3E-14, -4.8400000000000006E-13, 2.83312E-07, -2.83106E-07
DataValue, -4, 0, 0.1, 0, 80.40693, 5.8E-14, -4.7E-13, 2.82245E-07, -2.8203E-07
DataValue, -4, 0, 0.1, 0, 81.318540000000013, 8.0000000000000013E-14, -4.77E-13, 2.81175E-07, -2.80985E-07
DataValue, -4, 0, 0.1, 0, 82.23018, 7.1E-14, -4.76E-13, 2.80141E-07, -2.79932E-07
DataValue, -4, 0, 0.1, 0, 83.1418, 7.7E-14, -4.63E-13, 2.7906999999999997E-07, -2.7888399999999997E-07
DataValue, -4, 0, 0.1, 0, 84.053440000000009, 8.9000000000000012E-14, -4.68E-13, 2.7804E-07, -2.77825E-07
DataValue, -4, 0, 0.1, 0, 84.965390000000014, 6.4E-14, -4.75E-13, 2.76984E-07, -2.7679E-07
DataValue, -4, 0, 0.1, 0, 85.87735, 8.8E-14, -4.71E-13, 2.75985E-07, -2.75771E-07
DataValue, -4, 0, 0.1, 0, 86.788980000000009, 6.1E-14, -4.6200000000000005E-13, 2.7495999999999997E-07, -2.74748E-07
DataValue, -4, 0, 0.1, 0, 87.70076, 7.7E-14, -4.67E-13, 2.73948E-07, -2.73739E-07
DataValue, -4, 0, 0.1, 0, 88.61239, 7E-14, -4.5100000000000005E-13, 2.7295E-07, -2.72764E-07
DataValue, -4, 0, 0.1, 0, 89.52401, 6.5E-14, -4.5600000000000008E-13, 2.71931E-07, -2.71744E-07
DataValue, -4, 0, 0.1, 0, 90.43559, 6.6000000000000009E-14, -4.67E-13, 2.71013E-07, -2.70855E-07
DataValue, -4, 0, 0.1, 0, 91.34729, 5.2000000000000006E-14, -4.5600000000000008E-13, 2.70076E-07, -2.6987E-07
DataValue, -4, 0, 0.1, 0, 92.258860000000013, 4.7E-14, -4.8200000000000007E-13, 2.69113E-07, -2.68927E-07
DataValue, -4, 0, 0.1, 0, 93.17043000000001, 9.0000000000000008E-14, -4.73E-13, 2.68155E-07, -2.67971E-07
DataValue, -4, 0, 0.1, 0, 94.08213, 7.1E-14, -4.63E-13, 2.67191E-07, -2.66996E-07
DataValue, -4, 0, 0.1, 0, 94.993710000000007, 7.4E-14, -4.6100000000000006E-13, 2.66231E-07, -2.6606E-07
DataValue, -4, 0, 0.1, 0, 95.905290000000008, 8.3000000000000012E-14, -4.75E-13, 2.65317E-07, -2.65137E-07
DataValue, -4, 0, 0.1, 0, 96.816960000000009, 6.4E-14, -4.6000000000000006E-13, 2.64382E-07, -2.64214E-07
DataValue, -4, 0, 0.1, 0, 97.728550000000013, 5.3E-14, -4.36E-13, 2.63469E-07, -2.63301E-07
DataValue, -4, 0, 0.1, 0, 98.640180000000015, 8.7000000000000008E-14, -4.63E-13, 2.62579E-07, -2.62414E-07
DataValue, -4, 0, 0.1, 0, 99.55181, 6.7E-14, -4.5000000000000005E-13, 2.61686E-07, -2.61506E-07
DataValue, -4, 0, 0.1, 0, 100.46350000000001, 5.4000000000000003E-14, -4.5600000000000008E-13, 2.6076999999999997E-07, -2.6059E-07
DataValue, -4, 0, 0.1, 0, 101.37511, 7.6E-14, -4.24E-13, 2.59902E-07, -2.59755E-07
DataValue, -4, 0, 0.1, 0, 102.28704, 7.2000000000000009E-14, -4.5900000000000006E-13, 2.59072E-07, -2.58895E-07
DataValue, -4, 0, 0.1, 0, 103.19886000000001, 5.5000000000000005E-14, -4.5500000000000008E-13, 2.58184E-07, -2.5801599999999997E-07
DataValue, -4, 0, 0.1, 0, 104.11047, 1E-13, -4.4900000000000006E-13, 2.57274E-07, -2.57115E-07
DataValue, -4, 0, 0.1, 0, 105.02209, 8.3000000000000012E-14, -4.4000000000000004E-13, 2.56411E-07, -2.5626299999999997E-07
DataValue, -4, 0, 0.1, 0, 105.93397, 7E-14, -4.3200000000000003E-13, 2.55546E-07, -2.5542299999999997E-07
DataValue, -4, 0, 0.1, 0, 106.84561000000001, 5.3E-14, -4.5300000000000004E-13, 2.54693E-07, -2.54542E-07
DataValue, -4, 0, 0.1, 0, 107.75730000000002, 5.3E-14, -4.5600000000000008E-13, 2.5383E-07, -2.53691E-07
DataValue, -4, 0, 0.1, 0, 108.66913000000001, 4.9000000000000006E-14, -4.48E-13, 2.53009E-07, -2.52851E-07
DataValue, -4, 0, 0.1, 0, 109.58069, 7.3E-14, -4.45E-13, 2.52197E-07, -2.52024E-07
DataValue, -4, 0, 0.1, 0, 110.49232, 8.0000000000000013E-14, -4.47E-13, 2.51376E-07, -2.51233E-07
DataValue, -4, 0, 0.1, 0, 111.40392000000001, 7.5000000000000009E-14, -4.5400000000000003E-13, 2.50563E-07, -2.50423E-07
DataValue, -4, 0, 0.1, 0, 112.31583, 6.1E-14, -4.4400000000000003E-13, 2.4972899999999997E-07, -2.49579E-07
DataValue, -4, 0, 0.1, 0, 113.22772, 5.6E-14, -4.46E-13, 2.48919E-07, -2.4879E-07
DataValue, -4, 0, 0.1, 0, 114.13929, 5.3E-14, -4.5100000000000005E-13, 2.48125E-07, -2.47974E-07
DataValue, -4, 0, 0.1, 0, 115.05116000000001, 4.7E-14, -4.2800000000000004E-13, 2.47349E-07, -2.47197E-07
DataValue, -4, 0, 0.1, 0, 115.96277, 6.8E-14, -4.3000000000000004E-13, 2.46534E-07, -2.46377E-07
DataValue, -4, 0, 0.1, 0, 116.87460000000002, 4.8000000000000004E-14, -4.5500000000000008E-13, 2.45803E-07, -2.45643E-07
DataValue, -4, 0, 0.1, 0, 117.78620000000001, 5.6E-14, -4.5900000000000006E-13, 2.44979E-07, -2.44853E-07
DataValue, -4, 0, 0.1, 0, 118.69785000000002, 5.5000000000000005E-14, -4.3700000000000006E-13, 2.44236E-07, -2.4410199999999997E-07
