
SetupTitle, I/V Sweep - Unit (transfer)
PrimitiveTest, I/V Sweep
TestParameter, Context.MainFrame, B1500A
TestParameter, Channel.UnitType, SMU, SMU, SMU
TestParameter, Channel.Unit, SMU3:HR, SMU1:HR, SMU2:HR
TestParameter, Channel.IName, IG, ID, IS
TestParameter, Channel.VName, VG, VD, VS
TestParameter, Channel.Mode, V, V, COMMON
TestParameter, Channel.Func, VAR1, VAR2, CONST
TestParameter, Channel.Index, 
TestParameter, Channel.Time, 
TestParameter, Measurement.Port.Unit, SMU3:HR, SMU1:HR, SMU2:HR
TestParameter, Measurement.Port.SeriesResistor, NONE, NONE, NONE
TestParameter, Measurement.Port.Filter, ON, ON, ON
TestParameter, Measurement.Port.OutputVoltageComparison, 0, 0, 0
TestParameter, Measurement.Primary.Locus, Single
TestParameter, Measurement.Primary.Scale, LINEAR
TestParameter, Measurement.Primary.Start, -3
TestParameter, Measurement.Primary.Stop, 3
TestParameter, Measurement.Primary.Step, 0.06
TestParameter, Measurement.Primary.Compliance, 0.1
TestParameter, Measurement.Primary.PowerCompliance, 0
TestParameter, Measurement.Aborting.Condition, CONTINUE AT ANY
TestParameter, Measurement.PostOutput.Value, START
TestParameter, Measurement.PostOutput.Retention, OFF
TestParameter, Measurement.Secondary.Start, 0.1
TestParameter, Measurement.Secondary.Count, 5
TestParameter, Measurement.Secondary.Step, 0.70000000000000007
TestParameter, Measurement.Secondary.Compliance, 0.1
TestParameter, Measurement.Secondary.PowerCompliance, 0
TestParameter, Measurement.Bias.Source, -3, 0.1, 0
TestParameter, Measurement.Bias.Compliance, 0.1, 0.1, 0.1
TestParameter, Measurement.Monitor.Unit, SMU3:HR, SMU1:HR, SMU2:HR
TestParameter, Measurement.Monitor.Adc, HR ADC, HR ADC, HR ADC
TestParameter, Measurement.Monitor.Measurement, Compliance Side, Compliance Side, Compliance Side
TestParameter, Measurement.Monitor.RangingMode, LIMITED, LIMITED, LIMITED
TestParameter, Measurement.Monitor.RangeBoundary, 1nA, 1nA, 1nA
TestParameter, Measurement.Monitor.RangeRating, BY FULL RANGE, BY FULL RANGE, BY FULL RANGE
TestParameter, Measurement.Monitor.RangeRatingCoeff, 50, 50, 50
TestParameter, Measurement.Timing.Hold, 0
TestParameter, Measurement.Timing.Delay, 0
TestParameter, Measurement.Adc.HighSpeed.Mode, PLC
TestParameter, Measurement.Adc.HighSpeed.Coeff, 5
TestParameter, Measurement.Adc.HighResolution.AutoZero, OFF
TestParameter, Measurement.Adc.HighResolution.Mode, PLC
TestParameter, Measurement.Adc.HighResolution.Coeff, 5
TestParameter, Measurement.WaitTime.Source.Coeff, 1
TestParameter, Measurement.WaitTime.Source.Offset, 0
TestParameter, Measurement.WaitTime.Monitor.Coeff, 1
TestParameter, Measurement.WaitTime.Monitor.Offset, 0
TestParameter, Function.User.Name, SS
TestParameter, Function.User.Unit, mV/dec
TestParameter, Function.User.Definition, diff(VG,log(ID))*1000
TestParameter, Output.Graph.Enabled, true
TestParameter, Output.Graph.AutoScaling, false
TestParameter, Output.Graph.XAxis.Data, VG
TestParameter, Output.Graph.XAxis.Scale, Linear
TestParameter, Output.Graph.XAxis.Left, -3
TestParameter, Output.Graph.XAxis.Right, 3
TestParameter, Output.Graph.XAxis.RunTimeAutoScale, true
TestParameter, Output.Graph.YAxis.Data, ID, IG
TestParameter, Output.Graph.YAxis.Scale, Log, Log
TestParameter, Output.Graph.YAxis.Bottom, 0, 1E-15
TestParameter, Output.Graph.YAxis.Top, 0.0001, 1E-12
TestParameter, Output.Graph.YAxis.Group, , 
TestParameter, Output.Graph.YAxis.RunTimeAutoScale, true, true
TestParameter, Output.List.Data, VG, VD, VS, IG, ID, IS, SS
TestParameter, Output.Scalar.Data, SS
TestParameter, AutoAnalysis.Interpolation, false
TestParameter, AutoAnalysis.Var2StepCount, 1
TestParameter, AutoAnalysis.Var2StepScript, 
TestParameter, AutoAnalysis.Line1.Enabled, false
TestParameter, AutoAnalysis.Line1.Type, 1
TestParameter, AutoAnalysis.Line1.Fix, True
TestParameter, AutoAnalysis.Line1.YAxis, 0
TestParameter, AutoAnalysis.Line1.Point1.Type, 0
TestParameter, AutoAnalysis.Line1.Point1.XY.X, 
TestParameter, AutoAnalysis.Line1.Point1.XY.Y, 
TestParameter, AutoAnalysis.Line1.Point1.Data.Var, 
TestParameter, AutoAnalysis.Line1.Point1.Data.Condition, 
TestParameter, AutoAnalysis.Line1.Point1.Data.Start, false
TestParameter, AutoAnalysis.Line1.Point1.Data.StartVar, 
TestParameter, AutoAnalysis.Line1.Point1.Data.StartCondition, 
TestParameter, AutoAnalysis.Line1.Point2.Type, 0
TestParameter, AutoAnalysis.Line1.Point2.XY.X, 
TestParameter, AutoAnalysis.Line1.Point2.XY.Y, 
TestParameter, AutoAnalysis.Line1.Point2.Data.Var, 
TestParameter, AutoAnalysis.Line1.Point2.Data.Condition, 
TestParameter, AutoAnalysis.Line1.Point2.Data.Start, false
TestParameter, AutoAnalysis.Line1.Point2.Data.StartVar, 
TestParameter, AutoAnalysis.Line1.Point2.Data.StartCondition, 
TestParameter, AutoAnalysis.Line1.GradientExpr, 0
TestParameter, AutoAnalysis.Line2.Enabled, false
TestParameter, AutoAnalysis.Line2.Type, 1
TestParameter, AutoAnalysis.Line2.Fix, True
TestParameter, AutoAnalysis.Line2.YAxis, 0
TestParameter, AutoAnalysis.Line2.Point1.Type, 0
TestParameter, AutoAnalysis.Line2.Point1.XY.X, 
TestParameter, AutoAnalysis.Line2.Point1.XY.Y, 
TestParameter, AutoAnalysis.Line2.Point1.Data.Var, 
TestParameter, AutoAnalysis.Line2.Point1.Data.Condition, 
TestParameter, AutoAnalysis.Line2.Point1.Data.Start, false
TestParameter, AutoAnalysis.Line2.Point1.Data.StartVar, 
TestParameter, AutoAnalysis.Line2.Point1.Data.StartCondition, 
TestParameter, AutoAnalysis.Line2.Point2.Type, 0
TestParameter, AutoAnalysis.Line2.Point2.XY.X, 
TestParameter, AutoAnalysis.Line2.Point2.XY.Y, 
TestParameter, AutoAnalysis.Line2.Point2.Data.Var, 
TestParameter, AutoAnalysis.Line2.Point2.Data.Condition, 
TestParameter, AutoAnalysis.Line2.Point2.Data.Start, false
TestParameter, AutoAnalysis.Line2.Point2.Data.StartVar, 
TestParameter, AutoAnalysis.Line2.Point2.Data.StartCondition, 
TestParameter, AutoAnalysis.Line2.GradientExpr, 0
TestParameter, AutoAnalysis.Marker.Enabled, false
TestParameter, AutoAnalysis.Marker.Data.Var, 
TestParameter, AutoAnalysis.Marker.Data.Condition, 
TestParameter, AutoAnalysis.Marker.Data.Start, false
TestParameter, AutoAnalysis.Marker.Data.StartVar, 
TestParameter, AutoAnalysis.Marker.Data.StartCondition, 
MetaData, TestRecord.EntryPoint, true
MetaData, TestRecord.RecordTime, 04/09/2026 11:14:19
MetaData, TestRecord.TestTarget, 260331_WF02_#5_40_20_1_R3_TRANSFER_SWEEP
MetaData, TestRecord.IterationIndex, 4
MetaData, TestRecord.Preservation, true
MetaData, TestRecord.Flag, 
MetaData, TestRecord.Remarks, 
MetaData, TestRecord.LinkKey, 06c0561a-8542-41f6-964b-3cfd094b7777
MetaData, TestRecord.Parameters, 
Dimension1, 101, 101, 101, 101, 101, 101, 101
Dimension2, 5, 5, 5, 5, 5, 5, 5
DataName, VG, VD, VS, IG, ID, IS, SS
DataValue, -3, 0.1, 0, -2.9180000000000003E-12, 2.8E-13, 2.35E-13, -59.996363324060141
DataValue, -2.94, 0.1, 0, -1.46E-12, 1.03E-13, 1E-13, -34.90843056006495
DataValue, -2.88, 0.1, 0, -1.1000000000000002E-12, 9.0000000000000011E-15, 8.1000000000000008E-14, -33.935531600209877
DataValue, -2.82, 0.1, 0, -9.94E-13, -3.0000000000000002E-15, 5.3E-14, 173.12340490667643
DataValue, -2.7600000000000002, 0.1, 0, -8.91E-13, -1.8000000000000002E-14, 4.2000000000000004E-14, 69.180172367155791
DataValue, -2.7, 0.1, 0, -7.5700000000000011E-13, 1.7E-14, 6.1E-14, 251.61237820110765
DataValue, -2.64, 0.1, 0, -7.110000000000001E-13, -2.9E-14, -1.5000000000000002E-14, 140.24161830121508
DataValue, -2.58, 0.1, 0, -6.4800000000000007E-13, -4.0000000000000006E-14, -3.5E-14, 118.2579650146393
DataValue, -2.52, 0.1, 0, -6.2500000000000006E-13, -8.0000000000000013E-14, 1E-15, 161.73872477570183
DataValue, -2.46, 0.1, 0, -5.2700000000000008E-13, -8.4000000000000008E-14, -1.0000000000000002E-14, -4739.7468246247727
DataValue, -2.4, 0.1, 0, -4.5800000000000007E-13, -7.8000000000000008E-14, -2.9E-14, 515.85769051656416
DataValue, -2.34, 0.1, 0, -4.63E-13, -1.06E-13, -2.3000000000000003E-14, 1229.0237704048291
DataValue, -2.2800000000000002, 0.1, 0, -4.2700000000000005E-13, -8.6000000000000012E-14, -2.9E-14, -237.83286184829342
DataValue, -2.22, 0.1, 0, -3.88E-13, -6.4E-14, -3.7E-14, 2123.434907974925
DataValue, -2.16, 0.1, 0, -3.4700000000000004E-13, -9.1E-14, -5.8E-14, 237.8328618482943
DataValue, -2.1, 0.1, 0, -3.2400000000000003E-13, -1.06E-13, -5.5000000000000005E-14, 968.761621835475
DataValue, -2.04, 0.1, 0, -3.1300000000000003E-13, -1.03E-13, -1.5000000000000002E-14, 
DataValue, -1.98, 0.1, 0, -2.92E-13, -1.06E-13, -7.7E-14, -1484.1915671091385
DataValue, -1.92, 0.1, 0, -2.36E-13, -9.5000000000000012E-14, -8E-15, 765.09888461797834
DataValue, -1.86, 0.1, 0, -2.7700000000000003E-13, -1.24E-13, -9.0000000000000008E-14, 334.46867411459885
DataValue, -1.8, 0.1, 0, -2.2600000000000002E-13, -1.36E-13, -6.0000000000000009E-14, -4899.7550922484006
DataValue, -1.74, 0.1, 0, -1.5500000000000002E-13, -1.2100000000000002E-13, -6.4E-14, 16379.926739661079
DataValue, -1.68, 0.1, 0, -1.82E-13, -1.3700000000000002E-13, -4.8000000000000004E-14, 315.49126222953123
DataValue, -1.62, 0.1, 0, -1.99E-13, -1.77E-13, -6.5E-14, -760.4225846807135
DataValue, -1.56, 0.1, 0, -1.18E-13, -1.17E-13, -5.2000000000000006E-14, -217.71593802344668
DataValue, -1.5, 0.1, 0, -1.24E-13, -1.0200000000000001E-13, -8.1000000000000008E-14, 994.79401256600238
DataValue, -1.44, 0.1, 0, -9.6000000000000007E-14, -1.3200000000000002E-13, -6.8E-14, 465.42456096140319
DataValue, -1.3800000000000001, 0.1, 0, -1.1000000000000001E-13, -1.3200000000000002E-13, -7.8000000000000008E-14, 778.45910335571091
DataValue, -1.32, 0.1, 0, -5.9E-14, -1.54E-13, -4.8000000000000004E-14, 1114.923901106187
DataValue, -1.26, 0.1, 0, -4.2000000000000004E-14, -1.47E-13, -6.5E-14, -862.60932046252083
DataValue, -1.2, 0.1, 0, -2.2E-14, -1.34E-13, -9.5000000000000012E-14, -1041.3479023216455
DataValue, -1.1400000000000001, 0.1, 0, -5.9E-14, -1.3100000000000002E-13, -5.1000000000000004E-14, 
DataValue, -1.08, 0.1, 0, -2.0000000000000003E-14, -1.34E-13, -8.3000000000000012E-14, -15659.923371346025
DataValue, -1.02, 0.1, 0, -8E-15, -1.3E-13, -8.8E-14, 576.63012123842134
DataValue, -0.96, 0.1, 0, 3.3000000000000005E-14, -1.65E-13, -6.4E-14, 396.10556327241216
DataValue, -0.9, 0.1, 0, 1.8000000000000002E-14, -1.76E-13, -9.1E-14, -3239.629595753474
DataValue, -0.84, 0.1, 0, 1.3000000000000001E-14, -1.59E-13, -9.3000000000000008E-14, -1112.2546529603278
DataValue, -0.78, 0.1, 0, 4.7E-14, -1.58E-13, -1.2000000000000002E-13, 1063.0819724757253
DataValue, -0.72, 0.1, 0, 4.9000000000000006E-14, -1.7800000000000002E-13, -1.12E-13, 372.78654521615732
DataValue, -0.66, 0.1, 0, 8.1000000000000008E-14, -2.18E-13, -1.09E-13, -411.75643957061675
DataValue, -0.6, 0.1, 0, 6.4E-14, -1.3300000000000001E-13, -6.5E-14, -872.911437178744
DataValue, -0.54, 0.1, 0, 7.9E-14, -1.9000000000000002E-13, -8.7000000000000008E-14, 331.56104759493854
DataValue, -0.48, 0.1, 0, 1.03E-13, -1.9100000000000002E-13, -1.1100000000000001E-13, -5639.7872276208627
DataValue, -0.42, 0.1, 0, 8.8E-14, -1.8600000000000002E-13, -7.6E-14, 11519.895832579763
DataValue, -0.36, 0.1, 0, 1.23E-13, -1.93E-13, -1.22E-13, -1001.6594173321338
DataValue, -0.3, 0.1, 0, 1.19E-13, -1.65E-13, -1.36E-13, -865.01318266461215
DataValue, -0.24, 0.1, 0, 1.63E-13, -1.6800000000000002E-13, -7.9E-14, -881.49624139466334
DataValue, -0.18, 0.1, 0, 1.6600000000000003E-13, -1.4400000000000002E-13, -8.5E-14, -999.8527428728662
DataValue, -0.12, 0.1, 0, 1.63E-13, -1.4900000000000002E-13, -1.1300000000000001E-13, 402.62395468391765
DataValue, -0.06, 0.1, 0, 2.56E-13, -1.94E-13, -1.3100000000000002E-13, 422.05857524422328
DataValue, 0, 0.1, 0, 3.98E-13, -1.9800000000000002E-13, -1.9200000000000002E-13, -283.23859654197759
DataValue, 0.06, 0.1, 0, 4.0300000000000005E-13, 1.2700000000000001E-13, -4.5300000000000004E-13, 57.481860038706522
DataValue, 0.12, 0.1, 0, 2.34E-13, 1.5970000000000002E-12, -1.93E-12, 28.77602334593956
DataValue, 0.18, 0.1, 0, 2.6400000000000004E-13, 8.22E-12, -8.4480000000000012E-12, 40.043598795889324
DataValue, 0.24, 0.1, 0, 2.0800000000000002E-13, 3.1972000000000005E-11, -3.4458000000000005E-11, 46.874383252058415
DataValue, 0.3, 0.1, 0, 2.5200000000000004E-13, 1.0633600000000001E-10, -1.06519E-10, 59.8848718518335
DataValue, 0.36, 0.1, 0, 1.7900000000000002E-13, 2.3715300000000003E-10, -2.60372E-10, 87.325608336689442
DataValue, 0.42, 0.1, 0, 2.8800000000000004E-13, 4.2021700000000005E-10, -4.3622E-10, 227.01712435310728
DataValue, 0.48, 0.1, 0, 5.3000000000000006E-13, 4.0234100000000004E-10, -3.15826E-10, -1225.2681007403223
DataValue, 0.54, 0.1, 0, 3.4800000000000003E-13, 3.8101300000000004E-10, -4.2708700000000005E-10, -6459.8574525007543
DataValue, 0.6, 0.1, 0, 1.81E-13, 3.9493600000000005E-10, -3.9664600000000004E-10, 29387.451148287008
DataValue, 0.66, 0.1, 0, 2.5100000000000004E-13, 3.82572E-10, -3.8634000000000003E-10, 239.15553136386447
DataValue, 0.72, 0.1, 0, 2.91E-13, 6.5229E-10, -5.87201E-10, 1886.4280343347741
DataValue, 0.78, 0.1, 0, 3.0200000000000003E-13, 4.0769900000000004E-10, -4.0565000000000004E-10, -719.21397822908659
DataValue, 0.84, 0.1, 0, 2.67E-13, 5.5205100000000008E-10, -5.2777400000000006E-10, 811.718714248635
DataValue, 0.9, 0.1, 0, 2.9900000000000004E-13, 4.72654E-10, -5.04822E-10, 2362.7436501166567
DataValue, 0.96, 0.1, 0, 3.15E-13, 5.80813E-10, -7.17342E-10, 117.52156925330404
DataValue, 1.02, 0.1, 0, 3.1100000000000004E-13, 1.31219E-09, -1.47274E-09, 149.1756812270236
DataValue, 1.08, 0.1, 0, 2.83E-13, 1.29835E-09, -1.41029E-09, 1360.5711444279839
DataValue, 1.1400000000000001, 0.1, 0, 2.92E-13, 1.43318E-09, -1.67234E-09, -1505.5245239566063
DataValue, 1.2, 0.1, 0, 3.1000000000000004E-13, 1.19888E-09, -1.0294E-09, -703.20094556430877
DataValue, 1.26, 0.1, 0, 3.7200000000000003E-13, 1.20834E-09, -1.11683E-09, -424.57653615924119
DataValue, 1.32, 0.1, 0, 3.3E-13, 9.0371E-10, -9.2217E-10, -481.6244815811865
DataValue, 1.3800000000000001, 0.1, 0, 3.3400000000000004E-13, 9.4185E-10, -8.4097E-10, -2278.670985705724
DataValue, 1.44, 0.1, 0, 3.14E-13, 8.5735E-10, -8.7592E-10, 14643.401922886844
DataValue, 1.5, 0.1, 0, 3.06E-13, 9.496E-10, -8.0834E-10, -850.90731349724979
DataValue, 1.56, 0.1, 0, 3.2500000000000003E-13, 7.4458E-10, -7.3938E-10, 134.79014688523665
DataValue, 1.62, 0.1, 0, 3.52E-13, 2.31303E-09, -2.24734E-09, 112.71706297612658
DataValue, 1.68, 0.1, 0, 3.89E-13, 2.15907E-09, -2.16971E-09, -735.04900714339658
DataValue, 1.74, 0.1, 0, 3.7000000000000004E-13, 1.96463E-09, -2.0312E-09, -2470.9105577094465
DataValue, 1.8, 0.1, 0, 3.4500000000000004E-13, 2.05672E-09, -1.78923E-09, -524.94696956712755
DataValue, 1.86, 0.1, 0, 3.6900000000000004E-13, 1.56316E-09, -7.664E-10, -287.20983004243573
DataValue, 1.92, 0.1, 0, 3.63E-13, 1.35432E-09, -1.46951E-09, -1112.8326375261077
DataValue, 1.98, 0.1, 0, 3.74E-13, 1.40337E-09, -1.54581E-09, 460.94139519393497
DataValue, 2.04, 0.1, 0, 3.6100000000000003E-13, 1.75705E-09, -1.65675E-09, 731.924936547599
DataValue, 2.1, 0.1, 0, 3.9000000000000005E-13, 1.65339E-09, -1.95633E-09, 5273.5706717388721
DataValue, 2.16, 0.1, 0, 3.75E-13, 1.79749E-09, -1.81126E-09, 597.4937209463892
DataValue, 2.22, 0.1, 0, 3.4500000000000004E-13, 2.02115E-09, -1.79776E-09, -624.75686216929216
DataValue, 2.2800000000000002, 0.1, 0, 3.65E-13, 1.48337E-09, -1.62975E-09, -617.53131617248323
DataValue, 2.34, 0.1, 0, 3.6900000000000004E-13, 1.6642E-09, -1.45839E-09, 2275.9389630148166
DataValue, 2.4, 0.1, 0, 4.0600000000000004E-13, 1.56368E-09, -1.90237E-09, -1011.3955701992259
DataValue, 2.46, 0.1, 0, 4.4200000000000004E-13, 1.47801E-09, -1.87528E-09, -1481.0271450044797
DataValue, 2.52, 0.1, 0, 4.1E-13, 1.44198E-09, -1.34039E-09, 833.06308753483233
DataValue, 2.58, 0.1, 0, 4.3800000000000005E-13, 1.70701E-09, -1.52938E-09, 2722.495530286621
DataValue, 2.64, 0.1, 0, 4.3200000000000003E-13, 1.50696E-09, -1.3118E-09, -1521.7300469910035
DataValue, 2.7, 0.1, 0, 4.5500000000000008E-13, 1.57757E-09, -1.3723E-09, 1654.0818878740106
DataValue, 2.7600000000000002, 0.1, 0, 4.13E-13, 1.62035E-09, -1.89055E-09, 2990.976939704693
DataValue, 2.82, 0.1, 0, 4.2600000000000005E-13, 1.64215E-09, -1.56925E-09, 762.54429761515087
DataValue, 2.88, 0.1, 0, 4.4400000000000003E-13, 1.8965E-09, -1.82064E-09, 454.85151890707544
DataValue, 2.94, 0.1, 0, 4.3000000000000004E-13, 2.13791E-09, -1.79463E-09, 1621.2365561955619
DataValue, 3, 0.1, 0, 4.23E-13, 2.0422E-09, -1.99061E-09, -1310.0134016287461
DataValue, -3, 0.8, 0, -3.925E-12, 8.3500000000000008E-13, 3.8200000000000004E-13, -133.65699095886987
DataValue, -2.94, 0.8, 0, -2.239E-12, 5.3300000000000005E-13, 2.9800000000000004E-13, -168.71122050353506
DataValue, -2.88, 0.8, 0, -1.7640000000000002E-12, 4.1E-13, 1.59E-13, -229.54241020240622
DataValue, -2.82, 0.8, 0, -1.494E-12, 3.16E-13, 1.7200000000000002E-13, -240.62356961199515
DataValue, -2.7600000000000002, 0.8, 0, -1.301E-12, 2.49E-13, 1.0700000000000001E-13, -238.34645452989798
DataValue, -2.7, 0.8, 0, -1.1270000000000002E-12, 1.9100000000000002E-13, 8.2E-14, -844.03327931235549
DataValue, -2.64, 0.8, 0, -9.97E-13, 2.1600000000000001E-13, 9.0000000000000008E-14, -702.29214024741782
DataValue, -2.58, 0.8, 0, -9.21E-13, 1.6100000000000002E-13, 3.7E-14, -142.40299351360929
DataValue, -2.52, 0.8, 0, -8.3800000000000006E-13, 9.3000000000000008E-14, 4.0000000000000006E-14, -232.08310072743319
DataValue, -2.46, 0.8, 0, -7.350000000000001E-13, 9.6000000000000007E-14, 5.8E-14, -236.57076369369523
DataValue, -2.4, 0.8, 0, -7.1800000000000007E-13, 5.6E-14, 4E-15, -1379.1299960038873
DataValue, -2.34, 0.8, 0, -6.7100000000000007E-13, 8.8E-14, 7E-15, 231.68568509022126
DataValue, -2.2800000000000002, 0.8, 0, -6.2600000000000006E-13, 9.4E-14, -1.9E-14, -147.4608769932388
DataValue, -2.22, 0.8, 0, -5.7900000000000006E-13, 3.9000000000000004E-14, 1E-15, -964.2103248665386
DataValue, -2.16, 0.8, 0, -5.14E-13, 8.3000000000000012E-14, -3.0000000000000002E-15, 525.71939314702331
DataValue, -2.1, 0.8, 0, -4.9E-13, 4.9000000000000006E-14, -1.7E-14, -110.43255443351794
DataValue, -2.04, 0.8, 0, -4.4000000000000004E-13, 2.8E-14, -1.4E-14, -126.66494219427338
DataValue, -1.98, 0.8, 0, -4.4400000000000003E-13, -1.9E-14, -8E-15, -497.59071382906529
DataValue, -1.92, 0.8, 0, -3.62E-13, 2.2E-14, -5.5000000000000005E-14, -77.0146741259769
DataValue, -1.86, 0.8, 0, -3.9100000000000005E-13, 4E-15, -6.6000000000000009E-14, -2579.534816621835
DataValue, -1.8, 0.8, 0, -3.4900000000000003E-13, 2.1000000000000002E-14, -7E-15, 90.788325929851723
DataValue, -1.74, 0.8, 0, -3.04E-13, -1.5000000000000002E-14, -2.7000000000000002E-14, -0
DataValue, -1.68, 0.8, 0, -3.08E-13, 0, -6.0000000000000009E-14, -59.55621624295582
DataValue, -1.62, 0.8, 0, -2.38E-13, -2E-15, -1.1E-14, 0
DataValue, -1.56, 0.8, 0, -2.6600000000000003E-13, -2.4000000000000002E-14, -2.8E-14, -173.12340490667529
DataValue, -1.5, 0.8, 0, -2.06E-13, -1E-15, -3.5E-14, 234.91382267654723
DataValue, -1.44, 0.8, 0, -1.9800000000000002E-13, -4.0000000000000006E-14, -2.3000000000000003E-14, 38.271478668456083
DataValue, -1.3800000000000001, 0.8, 0, -1.69E-13, -2.3000000000000003E-14, -2.7000000000000002E-14, -234.91382267654677
DataValue, -1.32, 0.8, 0, -1.82E-13, -2.4000000000000002E-14, -3.1E-14, -330.66460025186359
DataValue, -1.26, 0.8, 0, -1.48E-13, -1.6E-14, -2.5E-14, 147.97820774258628
DataValue, -1.2, 0.8, 0, -1.1500000000000002E-13, -5.4000000000000003E-14, -7.9E-14, 107.21641757348651
DataValue, -1.1400000000000001, 0.8, 0, -1.1100000000000001E-13, -4.9000000000000006E-14, -4.8000000000000004E-14, -204.15570336217635
DataValue, -1.08, 0.8, 0, -8.4000000000000008E-14, -3.0000000000000005E-14, -4.9000000000000006E-14, 547.81121420165039
DataValue, -1.02, 0.8, 0, -7.4E-14, -6.1E-14, -6.6000000000000009E-14, 280.73851975348151
DataValue, -0.96, 0.8, 0, -3.0000000000000005E-14, -4.6000000000000006E-14, -6.6000000000000009E-14, 973.7679853906759
DataValue, -0.9, 0.8, 0, -4.9000000000000006E-14, -6.9000000000000009E-14, -5.700000000000001E-14, 319.10546407480587
DataValue, -0.84, 0.8, 0, 4E-15, -6.7E-14, -9.2000000000000012E-14, -8219.8540125253257
