
SetupTitle, I/V Sweep - Unit (transfer)
PrimitiveTest, I/V Sweep
TestParameter, Context.MainFrame, B1500A
TestParameter, Channel.UnitType, SMU, SMU, SMU
TestParameter, Channel.Unit, SMU3:HR, SMU1:HR, SMU2:HR
TestParameter, Channel.IName, IG, ID, IS
TestParameter, Channel.VName, VG, VD, VS
TestParameter, Channel.Mode, V, V, COMMON
TestParameter, Channel.Func, VAR1, VAR2, CONST
TestParameter, Channel.Index, 
TestParameter, Channel.Time, 
TestParameter, Measurement.Port.Unit, SMU3:HR, SMU1:HR, SMU2:HR
TestParameter, Measurement.Port.SeriesResistor, NONE, NONE, NONE
TestParameter, Measurement.Port.Filter, ON, ON, ON
TestParameter, Measurement.Port.OutputVoltageComparison, 0, 0, 0
TestParameter, Measurement.Primary.Locus, Single
TestParameter, Measurement.Primary.Scale, LINEAR
TestParameter, Measurement.Primary.Start, -3
TestParameter, Measurement.Primary.Stop, 3
TestParameter, Measurement.Primary.Step, 0.06
TestParameter, Measurement.Primary.Compliance, 0.1
TestParameter, Measurement.Primary.PowerCompliance, 0
TestParameter, Measurement.Aborting.Condition, CONTINUE AT ANY
TestParameter, Measurement.PostOutput.Value, START
TestParameter, Measurement.PostOutput.Retention, OFF
TestParameter, Measurement.Secondary.Start, 0.1
TestParameter, Measurement.Secondary.Count, 5
TestParameter, Measurement.Secondary.Step, 0.70000000000000007
TestParameter, Measurement.Secondary.Compliance, 0.1
TestParameter, Measurement.Secondary.PowerCompliance, 0
TestParameter, Measurement.Bias.Source, -3, 0.1, 0
TestParameter, Measurement.Bias.Compliance, 0.1, 0.1, 0.1
TestParameter, Measurement.Monitor.Unit, SMU3:HR, SMU1:HR, SMU2:HR
TestParameter, Measurement.Monitor.Adc, HR ADC, HR ADC, HR ADC
TestParameter, Measurement.Monitor.Measurement, Compliance Side, Compliance Side, Compliance Side
TestParameter, Measurement.Monitor.RangingMode, LIMITED, LIMITED, LIMITED
TestParameter, Measurement.Monitor.RangeBoundary, 1nA, 1nA, 1nA
TestParameter, Measurement.Monitor.RangeRating, BY FULL RANGE, BY FULL RANGE, BY FULL RANGE
TestParameter, Measurement.Monitor.RangeRatingCoeff, 50, 50, 50
TestParameter, Measurement.Timing.Hold, 0
TestParameter, Measurement.Timing.Delay, 0
TestParameter, Measurement.Adc.HighSpeed.Mode, PLC
TestParameter, Measurement.Adc.HighSpeed.Coeff, 5
TestParameter, Measurement.Adc.HighResolution.AutoZero, OFF
TestParameter, Measurement.Adc.HighResolution.Mode, PLC
TestParameter, Measurement.Adc.HighResolution.Coeff, 5
TestParameter, Measurement.WaitTime.Source.Coeff, 1
TestParameter, Measurement.WaitTime.Source.Offset, 0
TestParameter, Measurement.WaitTime.Monitor.Coeff, 1
TestParameter, Measurement.WaitTime.Monitor.Offset, 0
TestParameter, Function.User.Name, SS
TestParameter, Function.User.Unit, mV/dec
TestParameter, Function.User.Definition, diff(VG,log(ID))*1000
TestParameter, Output.Graph.Enabled, true
TestParameter, Output.Graph.AutoScaling, false
TestParameter, Output.Graph.XAxis.Data, VG
TestParameter, Output.Graph.XAxis.Scale, Linear
TestParameter, Output.Graph.XAxis.Left, -3
TestParameter, Output.Graph.XAxis.Right, 3
TestParameter, Output.Graph.XAxis.RunTimeAutoScale, true
TestParameter, Output.Graph.YAxis.Data, ID, IG
TestParameter, Output.Graph.YAxis.Scale, Log, Log
TestParameter, Output.Graph.YAxis.Bottom, 0, 1E-15
TestParameter, Output.Graph.YAxis.Top, 0.0001, 1E-12
TestParameter, Output.Graph.YAxis.Group, , 
TestParameter, Output.Graph.YAxis.RunTimeAutoScale, true, true
TestParameter, Output.List.Data, VG, VD, VS, IG, ID, IS, SS
TestParameter, Output.Scalar.Data, SS
TestParameter, AutoAnalysis.Interpolation, false
TestParameter, AutoAnalysis.Var2StepCount, 1
TestParameter, AutoAnalysis.Var2StepScript, 
TestParameter, AutoAnalysis.Line1.Enabled, false
TestParameter, AutoAnalysis.Line1.Type, 1
TestParameter, AutoAnalysis.Line1.Fix, True
TestParameter, AutoAnalysis.Line1.YAxis, 0
TestParameter, AutoAnalysis.Line1.Point1.Type, 0
TestParameter, AutoAnalysis.Line1.Point1.XY.X, 
TestParameter, AutoAnalysis.Line1.Point1.XY.Y, 
TestParameter, AutoAnalysis.Line1.Point1.Data.Var, 
TestParameter, AutoAnalysis.Line1.Point1.Data.Condition, 
TestParameter, AutoAnalysis.Line1.Point1.Data.Start, false
TestParameter, AutoAnalysis.Line1.Point1.Data.StartVar, 
TestParameter, AutoAnalysis.Line1.Point1.Data.StartCondition, 
TestParameter, AutoAnalysis.Line1.Point2.Type, 0
TestParameter, AutoAnalysis.Line1.Point2.XY.X, 
TestParameter, AutoAnalysis.Line1.Point2.XY.Y, 
TestParameter, AutoAnalysis.Line1.Point2.Data.Var, 
TestParameter, AutoAnalysis.Line1.Point2.Data.Condition, 
TestParameter, AutoAnalysis.Line1.Point2.Data.Start, false
TestParameter, AutoAnalysis.Line1.Point2.Data.StartVar, 
TestParameter, AutoAnalysis.Line1.Point2.Data.StartCondition, 
TestParameter, AutoAnalysis.Line1.GradientExpr, 0
TestParameter, AutoAnalysis.Line2.Enabled, false
TestParameter, AutoAnalysis.Line2.Type, 1
TestParameter, AutoAnalysis.Line2.Fix, True
TestParameter, AutoAnalysis.Line2.YAxis, 0
TestParameter, AutoAnalysis.Line2.Point1.Type, 0
TestParameter, AutoAnalysis.Line2.Point1.XY.X, 
TestParameter, AutoAnalysis.Line2.Point1.XY.Y, 
TestParameter, AutoAnalysis.Line2.Point1.Data.Var, 
TestParameter, AutoAnalysis.Line2.Point1.Data.Condition, 
TestParameter, AutoAnalysis.Line2.Point1.Data.Start, false
TestParameter, AutoAnalysis.Line2.Point1.Data.StartVar, 
TestParameter, AutoAnalysis.Line2.Point1.Data.StartCondition, 
TestParameter, AutoAnalysis.Line2.Point2.Type, 0
TestParameter, AutoAnalysis.Line2.Point2.XY.X, 
TestParameter, AutoAnalysis.Line2.Point2.XY.Y, 
TestParameter, AutoAnalysis.Line2.Point2.Data.Var, 
TestParameter, AutoAnalysis.Line2.Point2.Data.Condition, 
TestParameter, AutoAnalysis.Line2.Point2.Data.Start, false
TestParameter, AutoAnalysis.Line2.Point2.Data.StartVar, 
TestParameter, AutoAnalysis.Line2.Point2.Data.StartCondition, 
TestParameter, AutoAnalysis.Line2.GradientExpr, 0
TestParameter, AutoAnalysis.Marker.Enabled, false
TestParameter, AutoAnalysis.Marker.Data.Var, 
TestParameter, AutoAnalysis.Marker.Data.Condition, 
TestParameter, AutoAnalysis.Marker.Data.Start, false
TestParameter, AutoAnalysis.Marker.Data.StartVar, 
TestParameter, AutoAnalysis.Marker.Data.StartCondition, 
MetaData, TestRecord.EntryPoint, true
MetaData, TestRecord.RecordTime, 04/09/2026 11:07:52
MetaData, TestRecord.TestTarget, 260331_WF02_#5_40_20_1_R1_TRANSFER_SWEEP
MetaData, TestRecord.IterationIndex, 2
MetaData, TestRecord.Preservation, true
MetaData, TestRecord.Flag, 
MetaData, TestRecord.Remarks, 
MetaData, TestRecord.LinkKey, a4005d6b-74f5-40cc-b616-4055ec16f8f7
MetaData, TestRecord.Parameters, 
Dimension1, 101, 101, 101, 101, 101, 101, 101
Dimension2, 5, 5, 5, 5, 5, 5, 5
DataName, VG, VD, VS, IG, ID, IS, SS
DataValue, -3, 0.1, 0, -2.3080000000000003E-12, 2.93E-13, 2.0900000000000002E-13, -98.156553377936987
DataValue, -2.94, 0.1, 0, -1.0960000000000002E-12, 1.59E-13, 1.5600000000000002E-13, -136.9626042933462
DataValue, -2.88, 0.1, 0, -8.69E-13, 1.22E-13, 1.28E-13, -162.56398916318267
DataValue, -2.82, 0.1, 0, -7.29E-13, 7.6E-14, 5.6E-14, -100.57806133648218
DataValue, -2.7600000000000002, 0.1, 0, -6.86E-13, 3.7E-14, 5.9E-14, -89.8875686247366
DataValue, -2.7, 0.1, 0, -5.7E-13, 2.0000000000000003E-14, 7.1E-14, -572.190044713651
DataValue, -2.64, 0.1, 0, -5.11E-13, 3.0000000000000005E-14, 3.8E-14, -234.91382267654723
DataValue, -2.58, 0.1, 0, -4.5200000000000004E-13, 1.2000000000000001E-14, 6.2E-14, 958.74869524567612
DataValue, -2.52, 0.1, 0, -4.0800000000000003E-13, -3.4E-14, 4.9000000000000006E-14, -66.973275186149749
DataValue, -2.46, 0.1, 0, -3.78E-13, 2E-15, 8.7000000000000008E-14, -106.33911837931943
DataValue, -2.4, 0.1, 0, -3.3200000000000005E-13, -1.1E-14, 2.6000000000000003E-14, 42.805770109797756
DataValue, -2.34, 0.1, 0, -3.29E-13, 3.3000000000000005E-14, 3.2E-14, 101.21255460384933
DataValue, -2.2800000000000002, 0.1, 0, -2.9000000000000003E-13, -3.6000000000000004E-14, 3.4E-14, -165.76443863263123
DataValue, -2.22, 0.1, 0, -2.79E-13, -1.6E-14, 1.4E-14, -187.76993122015375
DataValue, -2.16, 0.1, 0, -2.17E-13, -1.9E-14, -2E-15, -208.56356980693332
DataValue, -2.1, 0.1, 0, -2E-13, -9.0000000000000011E-15, 3.7E-14, 135.71553034581993
DataValue, -2.04, 0.1, 0, -2.36E-13, -4.6000000000000006E-14, 2.8E-14, 63.819166551219716
DataValue, -1.98, 0.1, 0, -1.6800000000000002E-13, -5.9E-14, 1.3000000000000001E-14, -196.79694227572264
DataValue, -1.92, 0.1, 0, -1.81E-13, -2.5E-14, -1.2000000000000001E-14, -950.16596978091286
DataValue, -1.86, 0.1, 0, -1.7200000000000002E-13, -5.2000000000000006E-14, -2.2E-14, 306.08958512780123
DataValue, -1.8, 0.1, 0, -1.2600000000000002E-13, -3.7E-14, -9.0000000000000011E-15, -163.8520762994948
DataValue, -1.74, 0.1, 0, -1.42E-13, -2.5E-14, 7E-15, -492.56618567119835
DataValue, -1.68, 0.1, 0, -1.1000000000000001E-13, -2.9E-14, 1.8000000000000002E-14, 155.82225539121487
DataValue, -1.62, 0.1, 0, -8.2E-14, -5.4000000000000003E-14, -7E-15, 102.9774502500857
DataValue, -1.56, 0.1, 0, -8.0000000000000013E-14, -9.3000000000000008E-14, -5.700000000000001E-14, 398.042434493002
DataValue, -1.5, 0.1, 0, -6.5E-14, -7.3E-14, -2.6000000000000003E-14, -245.123960814846
DataValue, -1.44, 0.1, 0, -4.1E-14, -5.700000000000001E-14, -3.6000000000000004E-14, -353.75718758528819
DataValue, -1.3800000000000001, 0.1, 0, -3.8E-14, -5.2000000000000006E-14, 5.0000000000000008E-15, 2339.487089546777
DataValue, -1.32, 0.1, 0, -1.6E-14, -6.0000000000000009E-14, -1.5000000000000002E-14, 263.46091599481565
DataValue, -1.26, 0.1, 0, -1.1E-14, -8.2E-14, -2.1000000000000002E-14, 384.1540487949834
DataValue, -1.2, 0.1, 0, 1.9E-14, -8.2E-14, -1.1E-14, -1344.8220927671841
DataValue, -1.1400000000000001, 0.1, 0, -9.0000000000000011E-15, -7.5000000000000009E-14, -2.3000000000000003E-14, -1168.9736387069563
DataValue, -1.08, 0.1, 0, 1.7E-14, -7.4E-14, -3.4E-14, 403.1819071697322
DataValue, -1.02, 0.1, 0, 5.1000000000000004E-14, -1.0100000000000001E-13, -3.0000000000000002E-15, 741.45919891226413
DataValue, -0.96, 0.1, 0, 7E-14, -8.7000000000000008E-14, -3.5E-14, -223.22131413983126
DataValue, -0.9, 0.1, 0, 8.5E-14, -5.9E-14, -8E-15, -487.01216976846717
DataValue, -0.84, 0.1, 0, 9.2000000000000012E-14, -6.8E-14, -3.0000000000000005E-14, 291.90054378947309
DataValue, -0.78, 0.1, 0, 9.8000000000000012E-14, -8.9000000000000012E-14, -5.9E-14, -324.88619879063305
DataValue, -0.72, 0.1, 0, 9.7E-14, -4.7E-14, -4.4E-14, -759.96008703039672
DataValue, -0.66, 0.1, 0, 1E-13, -7.6E-14, -4.7E-14, 763.42879105633415
DataValue, -0.6, 0.1, 0, 1.12E-13, -5.5000000000000005E-14, -5.5000000000000005E-14, 709.73861313891246
DataValue, -0.54, 0.1, 0, 1.3200000000000002E-13, -9.0000000000000008E-14, -6.8E-14, 469.94930363081676
DataValue, -0.48, 0.1, 0, 1.16E-13, -7.1E-14, -7.2000000000000009E-14, 597.99463854767851
DataValue, -0.42, 0.1, 0, 1.36E-13, -1.1000000000000001E-13, -4.1E-14, 713.70403783955476
DataValue, -0.36, 0.1, 0, 1.75E-13, -8.4000000000000008E-14, -3.7E-14, 6659.8198159202357
DataValue, -0.3, 0.1, 0, 1.89E-13, -1.12E-13, -6.0000000000000009E-14, 314.65707542650546
DataValue, -0.24, 0.1, 0, 2.0300000000000002E-13, -1.23E-13, -7.1E-14, -263.26239475046884
DataValue, -0.18, 0.1, 0, 2.11E-13, -7.1E-14, -1.2000000000000001E-14, -758.41841973991518
DataValue, -0.12, 0.1, 0, 2.12E-13, -1.0500000000000001E-13, -8.3000000000000012E-14, 2189.4519450732005
DataValue, -0.06, 0.1, 0, 2.6400000000000004E-13, -7.5000000000000009E-14, -6.2E-14, 799.67642652379561
DataValue, 0, 0.1, 0, 3.4600000000000004E-13, -1.22E-13, -1.4E-13, 187.98790378641
DataValue, 0.06, 0.1, 0, 4.68E-13, 1.42E-13, -3.05E-13, 52.377883165672543
DataValue, 0.12, 0.1, 0, 2.7600000000000004E-13, 1.2060000000000001E-12, -1.391E-12, 31.636287524012292
DataValue, 0.18, 0.1, 0, 2.95E-13, 6.3040000000000006E-12, -6.439E-12, 38.5243289821214
DataValue, 0.24, 0.1, 0, 2.6600000000000003E-13, 2.7173E-11, -2.6862000000000002E-11, 43.598490854666004
DataValue, 0.3, 0.1, 0, 3.0000000000000003E-13, 9.8847000000000013E-11, -9.711700000000001E-11, 49.670079353184825
DataValue, 0.36, 0.1, 0, 2.7800000000000003E-13, 3.04346E-10, -2.9907100000000004E-10, 57.178142263914218
DataValue, 0.42, 0.1, 0, 2.9000000000000003E-13, 8.0615600000000011E-10, -7.92153E-10, 66.909444624121633
DataValue, 0.48, 0.1, 0, 2.4000000000000004E-13, 1.8292E-09, -1.79341E-09, 78.219801066806852
DataValue, 0.54, 0.1, 0, 2.4100000000000003E-13, 3.73841E-09, -3.68746E-09, 90.804352242252349
DataValue, 0.6, 0.1, 0, 2.8900000000000003E-13, 6.8579E-09, -6.77131E-09, 107.10348455333516
DataValue, 0.66, 0.1, 0, 2.43E-13, 1.1462399999999999E-08, -1.1330999999999999E-08, 125.24243981191702
DataValue, 0.72, 0.1, 0, 2.69E-13, 1.78775E-08, -1.77082E-08, 144.52160011487
DataValue, 0.78, 0.1, 0, 2.67E-13, 2.62955E-08, -2.6073099999999997E-08, 166.24477882068015
DataValue, 0.84, 0.1, 0, 2.68E-13, 3.6795299999999996E-08, -3.6526799999999996E-08, 189.70753612424443
DataValue, 0.9, 0.1, 0, 2.9900000000000004E-13, 4.9498899999999993E-08, -4.9172499999999992E-08, 214.1611787379905
DataValue, 0.96, 0.1, 0, 2.67E-13, 6.44375E-08, -6.4071899999999988E-08, 239.98935074171857
DataValue, 1.02, 0.1, 0, 2.93E-13, 8.1611699999999987E-08, -8.1199999999999986E-08, 267.05270339166367
DataValue, 1.08, 0.1, 0, 2.92E-13, 1.0099239999999999E-07, -1.0053349999999999E-07, 295.75117764444241
DataValue, 1.1400000000000001, 0.1, 0, 2.9000000000000003E-13, 1.22452E-07, -1.21953E-07, 324.75781959593462
DataValue, 1.2, 0.1, 0, 2.82E-13, 1.46138E-07, -1.45596E-07, 353.67694336566052
DataValue, 1.26, 0.1, 0, 3.15E-13, 1.71917E-07, -1.71315E-07, 384.48030539584033
DataValue, 1.32, 0.1, 0, 3.4500000000000004E-13, 1.9966899999999999E-07, -1.9903799999999999E-07, 416.13462881786569
DataValue, 1.3800000000000001, 0.1, 0, 2.83E-13, 2.2938E-07, -2.28692E-07, 448.54164266392121
DataValue, 1.44, 0.1, 0, 2.96E-13, 2.60915E-07, -2.6016399999999997E-07, 482.13414300205926
DataValue, 1.5, 0.1, 0, 3.07E-13, 2.94204E-07, -2.93441E-07, 516.17366078785
DataValue, 1.56, 0.1, 0, 3.2000000000000005E-13, 3.29203E-07, -3.28365E-07, 552.12263386945654
DataValue, 1.62, 0.1, 0, 3.2100000000000005E-13, 3.6562799999999997E-07, -3.64731E-07, 587.99991110635449
DataValue, 1.68, 0.1, 0, 3.2100000000000005E-13, 4.03734E-07, -4.02801E-07, 622.8236129433526
DataValue, 1.74, 0.1, 0, 3.38E-13, 4.4331799999999997E-07, -4.4231099999999997E-07, 661.517951600984
DataValue, 1.8, 0.1, 0, 3.4400000000000005E-13, 4.84035E-07, -4.82942E-07, 700.24203768179655
DataValue, 1.86, 0.1, 0, 3.5600000000000005E-13, 5.26187E-07, -5.24985E-07, 739.9584391362331
DataValue, 1.92, 0.1, 0, 3.5900000000000004E-13, 5.69255E-07, -5.68058E-07, 780.95062817994369
DataValue, 1.98, 0.1, 0, 3.54E-13, 6.13583E-07, -6.12263E-07, 821.69325187259221
DataValue, 2.04, 0.1, 0, 3.3500000000000004E-13, 6.58766E-07, -6.57368E-07, 863.29184696696575
DataValue, 2.1, 0.1, 0, 3.5600000000000005E-13, 7.0508499999999994E-07, -7.03569E-07, 905.336225113768
DataValue, 2.16, 0.1, 0, 3.54E-13, 7.52135E-07, -7.50569E-07, 948.30112151556136
DataValue, 2.22, 0.1, 0, 3.51E-13, 8.00199E-07, -7.98504E-07, 990.69680327761057
DataValue, 2.2800000000000002, 0.1, 0, 3.53E-13, 8.48986E-07, -8.4719699999999993E-07, 1037.7404677327077
DataValue, 2.34, 0.1, 0, 3.4600000000000004E-13, 8.98293E-07, -8.9647399999999993E-07, 1084.4558459248106
DataValue, 2.4, 0.1, 0, 3.8200000000000004E-13, 9.4832499999999994E-07, -9.4638799999999994E-07, 1128.7474181420571
DataValue, 2.46, 0.1, 0, 3.87E-13, 9.9905399999999989E-07, -9.97017E-07, 1175.4109615778878
DataValue, 2.52, 0.1, 0, 3.4E-13, 1.050256E-06, -1.048031E-06, 1223.6896025642855
DataValue, 2.58, 0.1, 0, 3.89E-13, 1.10199E-06, -1.099747E-06, 1296.440947598514
DataValue, 2.64, 0.1, 0, 3.77E-13, 1.15211E-06, -1.14889E-06, 1357.1017436166228
DataValue, 2.7, 0.1, 0, 3.43E-13, 1.20387E-06, -1.2015E-06, 1377.0810374101227
DataValue, 2.7600000000000002, 0.1, 0, 4.2700000000000005E-13, 1.25701E-06, -1.25451E-06, 1415.2434328227378
DataValue, 2.82, 0.1, 0, 3.4700000000000004E-13, 1.3104000000000002E-06, -1.3078700000000002E-06, 1466.2824413957158
DataValue, 2.88, 0.1, 0, 3.8400000000000003E-13, 1.36421E-06, -1.3615300000000002E-06, 1517.5047756746865
DataValue, 2.94, 0.1, 0, 4.23E-13, 1.4182300000000002E-06, -1.4153900000000002E-06, 1572.2238850169977
DataValue, 3, 0.1, 0, 4.0600000000000004E-13, 1.4724100000000002E-06, -1.4694800000000002E-06, 1600.3884081469741
DataValue, -3, 0.8, 0, -3.3140000000000002E-12, 7.9200000000000006E-13, 3.7100000000000003E-13, -133.33245554975918
DataValue, -2.94, 0.8, 0, -1.742E-12, 5.0500000000000007E-13, 3.1100000000000004E-13, -173.75562814988942
DataValue, -2.88, 0.8, 0, -1.418E-12, 3.97E-13, 1.8000000000000002E-13, -231.90728700296333
DataValue, -2.82, 0.8, 0, -1.1460000000000002E-12, 3.0100000000000003E-13, 1.93E-13, -250.72881394327158
DataValue, -2.7600000000000002, 0.8, 0, -9.52E-13, 2.46E-13, 1.53E-13, -1946.050072069912
DataValue, -2.7, 0.8, 0, -8.8200000000000008E-13, 2.83E-13, 1.54E-13, -413.22914779556595
DataValue, -2.64, 0.8, 0, -7.9300000000000005E-13, 1.8400000000000002E-13, 1.12E-13, -177.61106070402707
DataValue, -2.58, 0.8, 0, -7.23E-13, 1.4400000000000002E-13, 1.0100000000000001E-13, -476.01834012123777
DataValue, -2.52, 0.8, 0, -6.81E-13, 1.4300000000000002E-13, 1.17E-13, 881.49624139466425
DataValue, -2.46, 0.8, 0, -5.8000000000000005E-13, 1.65E-13, 6.9000000000000009E-14, -624.47958150298609
DataValue, -2.4, 0.8, 0, -5.69E-13, 1.18E-13, 7.2000000000000009E-14, -520.04750476336767
DataValue, -2.34, 0.8, 0, -4.88E-13, 1.3100000000000002E-13, 5.6E-14, -249.88277201764021
DataValue, -2.2800000000000002, 0.8, 0, -4.75E-13, 7.3E-14, 7.4E-14, -428.45288014820409
DataValue, -2.22, 0.8, 0, -4.2000000000000003E-13, 9.9000000000000007E-14, 5.5000000000000005E-14, -1399.1424369134024
DataValue, -2.16, 0.8, 0, -3.7300000000000003E-13, 6.7E-14, 1.4E-14, -87.193839026311281
DataValue, -2.1, 0.8, 0, -3.16E-13, 2.5E-14, -1.5000000000000002E-14, 4079.7058653893796
DataValue, -2.04, 0.8, 0, -3.5500000000000005E-13, 6.9000000000000009E-14, 4.8000000000000004E-14, 134.52944368967795
DataValue, -1.98, 0.8, 0, -2.8700000000000004E-13, 6.1E-14, 2.6000000000000003E-14, -201.16665094796807
DataValue, -1.92, 0.8, 0, -2.72E-13, 3.8E-14, 4.7E-14, -70.053414913773551
DataValue, -1.86, 0.8, 0, -2.6600000000000003E-13, 1.1E-14, 1.7E-14, 161.1948893677004
DataValue, -1.8, 0.8, 0, -2.37E-13, 8.0000000000000013E-14, 4.4E-14, 243.66645643227434
DataValue, -1.74, 0.8, 0, -2.1600000000000001E-13, 1.8000000000000002E-14, -5.0000000000000008E-15, -130.96280015247496
DataValue, -1.68, 0.8, 0, -1.9500000000000003E-13, 3.2E-14, 9.0000000000000011E-15, 166.54033778302241
DataValue, -1.62, 0.8, 0, -1.59E-13, 3.7E-14, -1.8000000000000002E-14, 
DataValue, -1.56, 0.8, 0, -1.9200000000000002E-13, 3.2E-14, 3.1E-14, -380.85439057573154
DataValue, -1.5, 0.8, 0, -1.35E-13, 2.7000000000000002E-14, -1.7E-14, -284.89117739448841
DataValue, -1.44, 0.8, 0, -1.4900000000000002E-13, 2.1000000000000002E-14, -2.7000000000000002E-14, 868.61893586068368
DataValue, -1.3800000000000001, 0.8, 0, -1.1100000000000001E-13, 3.1E-14, 3.4E-14, -124.34190801200985
DataValue, -1.32, 0.8, 0, -9.7E-14, 8E-15, -2.0000000000000003E-14, -273.81323410335062
DataValue, -1.26, 0.8, 0, -9.8000000000000012E-14, 2.0000000000000003E-14, -1.2000000000000001E-14, 173.12340490667529
DataValue, -1.2, 0.8, 0, -8.5E-14, 1.6E-14, 1E-15, -417.12713961386595
DataValue, -1.1400000000000001, 0.8, 0, -5.9E-14, -1.5000000000000002E-14, -4.2000000000000004E-14, 109.22870719522061
DataValue, -1.08, 0.8, 0, -4.6000000000000006E-14, 4.8000000000000004E-14, -4.4E-14, 1859.35465958705
DataValue, -1.02, 0.8, 0, -3.6000000000000004E-14, -1.6E-14, -3.4E-14, -2819.5744167034659
DataValue, -0.96, 0.8, 0, -1E-15, -4.6000000000000006E-14, -2.3000000000000003E-14, 376.82083227134092
DataValue, -0.9, 0.8, 0, -3.4E-14, -2.2E-14, 7E-15, -120.5511535532013
DataValue, -0.84, 0.8, 0, -2.5E-14, 1.7E-14, -3.4E-14, -1259.0470424708378
DataValue, -0.78, 0.8, 0, 1.1E-14, -2.0000000000000003E-14, -7E-14, 166.17397987253131
