
SetupTitle, I/V Sweep - Unit (transfer)
PrimitiveTest, I/V Sweep
TestParameter, Context.MainFrame, B1500A
TestParameter, Channel.UnitType, SMU, SMU, SMU
TestParameter, Channel.Unit, SMU4:HR, SMU2:HR, SMU1:HR
TestParameter, Channel.IName, IG, ID, IS
TestParameter, Channel.VName, VG, VD, VS
TestParameter, Channel.Mode, V, V, COMMON
TestParameter, Channel.Func, VAR1, VAR2, CONST
TestParameter, Channel.Index, 
TestParameter, Channel.Time, 
TestParameter, Measurement.Port.Unit, SMU4:HR, SMU2:HR, SMU1:HR
TestParameter, Measurement.Port.SeriesResistor, NONE, NONE, NONE
TestParameter, Measurement.Port.Filter, ON, ON, ON
TestParameter, Measurement.Port.OutputVoltageComparison, 0, 0, 0
TestParameter, Measurement.Primary.Locus, Single
TestParameter, Measurement.Primary.Scale, LINEAR
TestParameter, Measurement.Primary.Start, -3
TestParameter, Measurement.Primary.Stop, 3
TestParameter, Measurement.Primary.Step, 0.06
TestParameter, Measurement.Primary.Compliance, 0.1
TestParameter, Measurement.Primary.PowerCompliance, 0
TestParameter, Measurement.Aborting.Condition, CONTINUE AT ANY
TestParameter, Measurement.PostOutput.Value, START
TestParameter, Measurement.PostOutput.Retention, OFF
TestParameter, Measurement.Secondary.Start, 0.1
TestParameter, Measurement.Secondary.Count, 5
TestParameter, Measurement.Secondary.Step, 0.70000000000000007
TestParameter, Measurement.Secondary.Compliance, 0.1
TestParameter, Measurement.Secondary.PowerCompliance, 0
TestParameter, Measurement.Bias.Source, -3, 0.1, 0
TestParameter, Measurement.Bias.Compliance, 0.1, 0.1, 0.1
TestParameter, Measurement.Monitor.Unit, SMU4:HR, SMU2:HR, SMU1:HR
TestParameter, Measurement.Monitor.Adc, HR ADC, HR ADC, HR ADC
TestParameter, Measurement.Monitor.Measurement, Compliance Side, Compliance Side, Compliance Side
TestParameter, Measurement.Monitor.RangingMode, LIMITED, LIMITED, LIMITED
TestParameter, Measurement.Monitor.RangeBoundary, 1nA, 1nA, 1nA
TestParameter, Measurement.Monitor.RangeRating, BY FULL RANGE, BY FULL RANGE, BY FULL RANGE
TestParameter, Measurement.Monitor.RangeRatingCoeff, 50, 50, 50
TestParameter, Measurement.Timing.Hold, 0
TestParameter, Measurement.Timing.Delay, 0
TestParameter, Measurement.Adc.HighSpeed.Mode, PLC
TestParameter, Measurement.Adc.HighSpeed.Coeff, 5
TestParameter, Measurement.Adc.HighResolution.AutoZero, OFF
TestParameter, Measurement.Adc.HighResolution.Mode, PLC
TestParameter, Measurement.Adc.HighResolution.Coeff, 5
TestParameter, Measurement.WaitTime.Source.Coeff, 1
TestParameter, Measurement.WaitTime.Source.Offset, 0
TestParameter, Measurement.WaitTime.Monitor.Coeff, 1
TestParameter, Measurement.WaitTime.Monitor.Offset, 0
TestParameter, Function.User.Name, SS
TestParameter, Function.User.Unit, mV/dec
TestParameter, Function.User.Definition, diff(VG,log(ID))*1000
TestParameter, Output.Graph.Enabled, true
TestParameter, Output.Graph.AutoScaling, false
TestParameter, Output.Graph.XAxis.Data, VG
TestParameter, Output.Graph.XAxis.Scale, Linear
TestParameter, Output.Graph.XAxis.Left, -3
TestParameter, Output.Graph.XAxis.Right, 3
TestParameter, Output.Graph.XAxis.RunTimeAutoScale, true
TestParameter, Output.Graph.YAxis.Data, ID, IG
TestParameter, Output.Graph.YAxis.Scale, Log, Log
TestParameter, Output.Graph.YAxis.Bottom, 0, 1E-15
TestParameter, Output.Graph.YAxis.Top, 0.0001, 1E-12
TestParameter, Output.Graph.YAxis.Group, , 
TestParameter, Output.Graph.YAxis.RunTimeAutoScale, true, true
TestParameter, Output.List.Data, VG, VD, VS, IG, ID, IS, SS
TestParameter, Output.Scalar.Data, SS
TestParameter, AutoAnalysis.Interpolation, false
TestParameter, AutoAnalysis.Var2StepCount, 1
TestParameter, AutoAnalysis.Var2StepScript, 
TestParameter, AutoAnalysis.Line1.Enabled, false
TestParameter, AutoAnalysis.Line1.Type, 1
TestParameter, AutoAnalysis.Line1.Fix, True
TestParameter, AutoAnalysis.Line1.YAxis, 0
TestParameter, AutoAnalysis.Line1.Point1.Type, 0
TestParameter, AutoAnalysis.Line1.Point1.XY.X, 
TestParameter, AutoAnalysis.Line1.Point1.XY.Y, 
TestParameter, AutoAnalysis.Line1.Point1.Data.Var, 
TestParameter, AutoAnalysis.Line1.Point1.Data.Condition, 
TestParameter, AutoAnalysis.Line1.Point1.Data.Start, false
TestParameter, AutoAnalysis.Line1.Point1.Data.StartVar, 
TestParameter, AutoAnalysis.Line1.Point1.Data.StartCondition, 
TestParameter, AutoAnalysis.Line1.Point2.Type, 0
TestParameter, AutoAnalysis.Line1.Point2.XY.X, 
TestParameter, AutoAnalysis.Line1.Point2.XY.Y, 
TestParameter, AutoAnalysis.Line1.Point2.Data.Var, 
TestParameter, AutoAnalysis.Line1.Point2.Data.Condition, 
TestParameter, AutoAnalysis.Line1.Point2.Data.Start, false
TestParameter, AutoAnalysis.Line1.Point2.Data.StartVar, 
TestParameter, AutoAnalysis.Line1.Point2.Data.StartCondition, 
TestParameter, AutoAnalysis.Line1.GradientExpr, 0
TestParameter, AutoAnalysis.Line2.Enabled, false
TestParameter, AutoAnalysis.Line2.Type, 1
TestParameter, AutoAnalysis.Line2.Fix, True
TestParameter, AutoAnalysis.Line2.YAxis, 0
TestParameter, AutoAnalysis.Line2.Point1.Type, 0
TestParameter, AutoAnalysis.Line2.Point1.XY.X, 
TestParameter, AutoAnalysis.Line2.Point1.XY.Y, 
TestParameter, AutoAnalysis.Line2.Point1.Data.Var, 
TestParameter, AutoAnalysis.Line2.Point1.Data.Condition, 
TestParameter, AutoAnalysis.Line2.Point1.Data.Start, false
TestParameter, AutoAnalysis.Line2.Point1.Data.StartVar, 
TestParameter, AutoAnalysis.Line2.Point1.Data.StartCondition, 
TestParameter, AutoAnalysis.Line2.Point2.Type, 0
TestParameter, AutoAnalysis.Line2.Point2.XY.X, 
TestParameter, AutoAnalysis.Line2.Point2.XY.Y, 
TestParameter, AutoAnalysis.Line2.Point2.Data.Var, 
TestParameter, AutoAnalysis.Line2.Point2.Data.Condition, 
TestParameter, AutoAnalysis.Line2.Point2.Data.Start, false
TestParameter, AutoAnalysis.Line2.Point2.Data.StartVar, 
TestParameter, AutoAnalysis.Line2.Point2.Data.StartCondition, 
TestParameter, AutoAnalysis.Line2.GradientExpr, 0
TestParameter, AutoAnalysis.Marker.Enabled, false
TestParameter, AutoAnalysis.Marker.Data.Var, 
TestParameter, AutoAnalysis.Marker.Data.Condition, 
TestParameter, AutoAnalysis.Marker.Data.Start, false
TestParameter, AutoAnalysis.Marker.Data.StartVar, 
TestParameter, AutoAnalysis.Marker.Data.StartCondition, 
MetaData, TestRecord.EntryPoint, true
MetaData, TestRecord.RecordTime, 04/09/2026 13:14:36
MetaData, TestRecord.TestTarget, 260331_WF02_#5_JUMBOFET_R2
MetaData, TestRecord.IterationIndex, 2
MetaData, TestRecord.Preservation, true
MetaData, TestRecord.Flag, 
MetaData, TestRecord.Remarks, 
MetaData, TestRecord.LinkKey, cb18c334-1acc-4d71-a9ee-48b333268e91
MetaData, TestRecord.Parameters, 
Dimension1, 101, 101, 101, 101, 101, 101, 101
Dimension2, 5, 5, 5, 5, 5, 5, 5
DataName, VG, VD, VS, IG, ID, IS, SS
DataValue, -3, 0.1, 0, -4.86792E-05, 5.33991E-05, 1.52E-13, 662.60058922927806
DataValue, -2.94, 0.1, 0, -5.72152E-05, 5.84602E-05, 1.19E-13, 1357.6272032172888
DataValue, -2.88, 0.1, 0, -5.7594200000000005E-05, 5.83339E-05, 3.38E-13, -5761.0712687745172
DataValue, -2.82, 0.1, 0, -5.67698E-05, 5.72551E-05, 1.25E-13, -2535.2208421644423
DataValue, -2.7600000000000002, 0.1, 0, -5.53083E-05, 5.56371E-05, 8.7000000000000008E-14, -1873.0544622227967
DataValue, -2.7, 0.1, 0, -5.34825E-05, 5.3702E-05, 2.2900000000000003E-13, -1580.2513920249521
DataValue, -2.64, 0.1, 0, -5.1428600000000004E-05, 5.15686E-05, 4.4E-14, -1403.7785555302767
DataValue, -2.58, 0.1, 0, -4.9219200000000005E-05, 4.9302100000000004E-05, 6.5E-14, -1282.1130574920462
DataValue, -2.52, 0.1, 0, -4.6925900000000004E-05, 4.6961E-05, 7.6E-14, -1188.3836769243821
DataValue, -2.46, 0.1, 0, -4.45653E-05, 4.45668E-05, 3.3000000000000005E-14, -1112.8735472965013
DataValue, -2.4, 0.1, 0, -4.21875E-05, 4.2160700000000004E-05, 7.1E-14, -1054.333469106768
DataValue, -2.34, 0.1, 0, -3.98228E-05, 3.97724E-05, 2.4000000000000002E-14, -1001.0961458880629
DataValue, -2.2800000000000002, 0.1, 0, -3.74682E-05, 3.7398100000000004E-05, 4.9000000000000006E-14, -952.32957875157558
DataValue, -2.22, 0.1, 0, -3.51464E-05, 3.50637E-05, 8.1000000000000008E-14, -909.11441012604666
DataValue, -2.16, 0.1, 0, -3.28696E-05, 3.27736E-05, 4.5000000000000004E-14, -869.32943591070432
DataValue, -2.1, 0.1, 0, -3.06472E-05, 3.05428E-05, 5.8E-14, -833.219414919048
DataValue, -2.04, 0.1, 0, -2.8489500000000002E-05, 2.83777E-05, 4.0000000000000006E-14, -798.73759702212089
DataValue, -1.98, 0.1, 0, -2.63985E-05, 2.62822E-05, -2.9E-14, -766.69933969162935
DataValue, -1.92, 0.1, 0, -2.43844E-05, 2.4266300000000002E-05, 0, -737.508061474452
DataValue, -1.86, 0.1, 0, -2.24552E-05, 2.23356E-05, 1.0000000000000002E-14, -707.89070760053255
DataValue, -1.8, 0.1, 0, -2.06019E-05, 2.04825E-05, 3.3000000000000005E-14, -679.35772900459835
DataValue, -1.74, 0.1, 0, -1.88378E-05, 1.8719100000000002E-05, 8E-15, -652.83491403212133
DataValue, -1.68, 0.1, 0, -1.7159E-05, 1.70433E-05, 1.2000000000000001E-14, -626.98595170787007
DataValue, -1.62, 0.1, 0, -1.55723E-05, 1.54584E-05, 1.2000000000000001E-14, -602.66062671030932
DataValue, -1.56, 0.1, 0, -1.40752E-05, 1.39662E-05, 5.0000000000000008E-15, -579.40212639735648
DataValue, -1.5, 0.1, 0, -1.26714E-05, 1.2566600000000001E-05, -2E-15, -556.31980238093843
DataValue, -1.44, 0.1, 0, -1.13563E-05, 1.1256400000000001E-05, -5E-14, -533.77446157423549
DataValue, -1.3800000000000001, 0.1, 0, -1.01305E-05, 1.00365E-05, -3.0000000000000005E-14, -510.44016419079105
DataValue, -1.32, 0.1, 0, -8.9883200000000014E-06, 8.89817E-06, 2.3000000000000003E-14, -491.21854052004869
DataValue, -1.26, 0.1, 0, -7.9417600000000014E-06, 7.8611900000000012E-06, -7E-15, -474.1094225140755
DataValue, -1.2, 0.1, 0, -6.9831900000000005E-06, 6.9084100000000005E-06, -2.8E-14, -453.94839715067349
DataValue, -1.1400000000000001, 0.1, 0, -6.10412E-06, 6.035090000000001E-06, -2.1000000000000002E-14, -434.27501614308363
DataValue, -1.08, 0.1, 0, -5.3035600000000009E-06, 5.2405000000000009E-06, -3.5E-14, -416.19752930561157
DataValue, -1.02, 0.1, 0, -4.5802100000000005E-06, 4.5234100000000005E-06, -2.5E-14, -398.33748842749918
DataValue, -0.96, 0.1, 0, -3.9288500000000005E-06, 3.8774E-06, -5.2000000000000006E-14, -381.17439150270638
DataValue, -0.9, 0.1, 0, -3.3475800000000002E-06, 3.3017400000000003E-06, -2.6000000000000003E-14, -364.46217896893108
DataValue, -0.84, 0.1, 0, -2.83016E-06, 2.78964E-06, -4.6000000000000006E-14, -347.78751526558534
DataValue, -0.78, 0.1, 0, -2.37388E-06, 2.33827E-06, -5.2000000000000006E-14, -332.660894471534
DataValue, -0.72, 0.1, 0, -1.9755900000000003E-06, 1.94485E-06, -4.7E-14, -317.58409951140408
DataValue, -0.66, 0.1, 0, -1.6290600000000002E-06, 1.6024900000000003E-06, -5.6E-14, -302.58237658579
DataValue, -0.6, 0.1, 0, -1.3307000000000002E-06, 1.3081300000000002E-06, -6.0000000000000009E-14, -288.48053774532929
DataValue, -0.54, 0.1, 0, -1.07611E-06, 1.0571600000000002E-06, -8.9000000000000012E-14, -272.17094921326338
DataValue, -0.48, 0.1, 0, -8.58722E-07, 8.41726E-07, -9.2000000000000012E-14, -260.00854873128139
DataValue, -0.42, 0.1, 0, -6.78977E-07, 6.66352E-07, -6.2E-14, -249.65729653221175
DataValue, -0.36, 0.1, 0, -5.30823E-07, 5.20503E-07, -9.4E-14, -236.02052274091682
DataValue, -0.3, 0.1, 0, -4.08971E-07, 4.0077E-07, -7.7E-14, -222.55197165981031
DataValue, -0.24, 0.1, 0, -3.09936E-07, 3.03565E-07, -1.0200000000000001E-13, -207.5330830177453
DataValue, -0.18, 0.1, 0, -2.2954799999999999E-07, 2.2479E-07, -7.8000000000000008E-14, -189.40462385940862
DataValue, -0.12, 0.1, 0, -1.64483E-07, 1.61101E-07, -8.1000000000000008E-14, -165.44738951534453
DataValue, -0.06, 0.1, 0, -1.1102799999999999E-07, 1.08838E-07, -1.0700000000000001E-13, -130.07048591572942
DataValue, 0, 0.1, 0, -6.527369999999999E-08, 6.40366E-08, -1.65E-13, -80.416623571898555
DataValue, 0.06, 0.1, 0, -2.4796699999999997E-08, 2.44745E-08, -1.3E-13, -71.0251087904883
DataValue, 0.12, 0.1, 0, 1.1924799999999998E-08, -1.1821399999999999E-08, -8.9000000000000012E-14, 187.4547032055072
DataValue, 0.18, 0.1, 0, 4.6517399999999994E-08, -4.6422599999999996E-08, -1.28E-13, 61.920951957884476
DataValue, 0.24, 0.1, 0, 8.1821299999999992E-08, -8.2094099999999986E-08, -1.3700000000000002E-13, 122.41463463967673
DataValue, 0.3, 0.1, 0, 1.22963E-07, -1.23725E-07, -9.0000000000000008E-14, 158.21621005340435
DataValue, 0.36, 0.1, 0, 1.73683E-07, -1.75269E-07, -7.5000000000000009E-14, 179.50480302753971
DataValue, 0.42, 0.1, 0, 2.38133E-07, -2.41427E-07, -1.3800000000000002E-13, 192.8745073994038
DataValue, 0.48, 0.1, 0, 3.22619E-07, -3.26519E-07, -1.16E-13, 203.63201923605587
DataValue, 0.54, 0.1, 0, 4.29769E-07, -4.35226E-07, -2.2800000000000004E-13, -76.465585370880333
DataValue, 0.6, 0.1, 0, 2.44792E-07, -6.7976E-08, -1.29E-13, -57.73011856185979
DataValue, 0.66, 0.1, 0, 6.0458E-08, -5.4447E-08, -9.7E-14, 47.348661166200237
DataValue, 0.72, 0.1, 0, 2.71571E-08, -8.57092E-07, -1.0400000000000001E-13, 38.621054205194838
DataValue, 0.78, 0.1, 0, 1.19248E-06, -1.2172400000000002E-06, -1.1500000000000002E-13, 200.78160634055186
DataValue, 0.84, 0.1, 0, 1.5299700000000002E-06, -1.5580800000000003E-06, -1.5500000000000002E-13, 254.51256324963478
DataValue, 0.9, 0.1, 0, 1.9192800000000003E-06, -1.95048E-06, -1.3100000000000002E-13, 279.84739675296754
DataValue, 0.96, 0.1, 0, 2.35993E-06, -2.3923100000000002E-06, -1.4300000000000002E-13, 300.32628466405509
DataValue, 1.02, 0.1, 0, 2.88108E-06, -2.9085100000000005E-06, -1.4500000000000001E-13, -47.330521821585108
DataValue, 1.08, 0.1, 0, 1.22334E-06, -1.8955E-07, -2.0200000000000002E-13, -45.622416903808038
DataValue, 1.1400000000000001, 0.1, 0, 2.64497E-07, -2.09581E-07, -2.11E-13, 592.875286178779
DataValue, 1.2, 0.1, 0, 3.50275E-07, -2.32074E-07, -2.05E-13, 531.48947154875134
DataValue, 1.26, 0.1, 0, 1.44248E-07, -2.62668E-07, -3.77E-13, 205.02451769273046
DataValue, 1.32, 0.1, 0, 2.76705E-07, -4.16694E-07, -2.8900000000000003E-13, -2709.5861432062511
DataValue, 1.3800000000000001, 0.1, 0, 1.8615E-07, -2.51289E-07, -1.2100000000000002E-13, 1095.4785339620271
DataValue, 1.44, 0.1, 0, 4.4998999999999997E-07, -4.64933E-07, -1.28E-13, 144.16161667695749
DataValue, 1.5, 0.1, 0, 5.6208000000000007E-07, -5.7767E-07, -4.3100000000000003E-13, 127.77609784976579
DataValue, 1.56, 0.1, 0, 5.4709000000000006E-07, -1.1892000000000002E-06, -1.36E-13, 145.01028144474532
DataValue, 1.62, 0.1, 0, 1.8432100000000003E-06, -1.32151E-06, -2.45E-13, 584.53154039101923
DataValue, 1.68, 0.1, 0, 1.3474300000000002E-06, -1.4602000000000002E-06, -1.7300000000000002E-13, -3838.9055128729406
DataValue, 1.74, 0.1, 0, 1.1902E-06, -1.2808400000000001E-06, -4.5400000000000003E-13, -287192.45483770227
DataValue, 1.8, 0.1, 0, 1.53328E-06, -1.4595900000000001E-06, -2.7500000000000004E-13, 400.2416666008362
DataValue, 1.86, 0.1, 0, 1.9247900000000003E-06, -1.72864E-06, -2.1400000000000002E-13, 1845.6915454086366
DataValue, 1.92, 0.1, 0, 1.5596100000000001E-06, -1.5576400000000002E-06, -1.93E-13, 763.78093791187325
DataValue, 1.98, 0.1, 0, 2.0181500000000003E-06, -2.02273E-06, -2.2800000000000004E-13, 3709.682386044155
DataValue, 2.04, 0.1, 0, 1.7432100000000002E-06, -1.60885E-06, -2.81E-13, -793.79594523300568
DataValue, 2.1, 0.1, 0, 1.7492700000000002E-06, -1.7389400000000002E-06, -3.04E-13, 319.46625928666663
DataValue, 2.16, 0.1, 0, 1.97331E-06, -2.3423300000000004E-06, -2.1500000000000002E-13, 208.82063664920514
DataValue, 2.22, 0.1, 0, 2.70143E-06, -3.0892600000000004E-06, -3.39E-13, 2140.8938997026567
DataValue, 2.2800000000000002, 0.1, 0, 2.6313E-06, -2.4773700000000002E-06, -4.0800000000000003E-13, -2436.0472529711428
DataValue, 2.34, 0.1, 0, 3.0281900000000002E-06, -2.9407700000000003E-06, -3.41E-13, 705.18834600617947
DataValue, 2.4, 0.1, 0, 2.8311900000000002E-06, -2.93693E-06, -3.4E-13, 3114.9602264102627
DataValue, 2.46, 0.1, 0, 2.8470900000000004E-06, -3.0562700000000003E-06, -4.4100000000000004E-13, 42.822721167451917
DataValue, 2.52, 0.1, 0, 4.6209000000000004E-05, -4.84056E-05, -4.7900000000000008E-13, 52.39392140624571
DataValue, 2.58, 0.1, 0, 3.25582E-05, -3.0190800000000002E-05, -2.56E-13, -221.54856769228553
DataValue, 2.64, 0.1, 0, 3.22918E-05, -2.8162000000000002E-05, -2.47E-13, 1343.6852887853331
DataValue, 2.7, 0.1, 0, 3.1605E-05, -3.30111E-05, -2.0300000000000002E-13, 453.42335441749054
DataValue, 2.7600000000000002, 0.1, 0, 3.56038E-05, -3.66945E-05, -2.84E-13, 537.95591791307345
DataValue, 2.82, 0.1, 0, 4.25083E-05, -4.12607E-05, -3.2000000000000005E-13, 541.77676240662
DataValue, 2.88, 0.1, 0, 4.37424E-05, -4.57925E-05, -1.9200000000000002E-13, 357.84416662601893
DataValue, 2.94, 0.1, 0, 4.8403400000000005E-05, -5.76997E-05, -9.1E-14, 343.8820498196045
DataValue, 3, 0.1, 0, 6.7376900000000009E-05, -6.49149E-05, -2.11E-13, 509.22889469716182
DataValue, -3, 0.8, 0, -0.000109247, 0.000111934, 3.19E-13, -2371.0318581426295
DataValue, -2.94, 0.8, 0, -0.000109152, 0.00010913700000000001, 2.23E-13, -1604.3171679193031
DataValue, -2.88, 0.8, 0, -0.00010437100000000001, 0.000103867, 2.4000000000000004E-13, -1116.9598992151359
DataValue, -2.82, 0.8, 0, -9.86839E-05, 9.80198E-05, 1.75E-13, -1027.966081571102
DataValue, -2.7600000000000002, 0.8, 0, -9.29611E-05, 9.2423E-05, 1.52E-13, -1026.0369959711561
DataValue, -2.7, 0.8, 0, -8.77185E-05, 8.72009E-05, 8.4000000000000008E-14, -1024.5937050378379
DataValue, -2.64, 0.8, 0, -8.27374E-05, 8.22083E-05, 1.2600000000000002E-13, -1012.9277447325961
DataValue, -2.58, 0.8, 0, -7.77467E-05, 7.74588E-05, 8.2E-14, -1032.3484050131494
DataValue, -2.52, 0.8, 0, -7.35155E-05, 7.3186900000000009E-05, 7.6E-14, -1071.9820407724451
DataValue, -2.46, 0.8, 0, -6.95049E-05, 6.92556E-05, 9.1E-14, -1022.7829622228887
DataValue, -2.4, 0.8, 0, -6.55509E-05, 6.50847E-05, 2.7000000000000002E-14, -983.81948496086443
DataValue, -2.34, 0.8, 0, -6.16047E-05, 6.13031E-05, 7.1E-14, -955.45452938587846
DataValue, -2.2800000000000002, 0.8, 0, -5.76532E-05, 5.74029E-05, 2.1000000000000002E-14, -1242.1770070243229
DataValue, -2.22, 0.8, 0, -5.5662600000000005E-05, 5.5658E-05, 1.1E-14, -1373.9301785446357
DataValue, -2.16, 0.8, 0, -5.2724E-05, 5.2602E-05, 6.7E-14, -1039.9492765478651
DataValue, -2.1, 0.8, 0, -4.97206E-05, 4.95923E-05, 2.9E-14, -1010.1543539581274
DataValue, -2.04, 0.8, 0, -4.6832E-05, 4.67101E-05, -2E-15, -987.52529351640442
DataValue, -1.98, 0.8, 0, -4.40406E-05, 4.39178E-05, 3.0000000000000005E-14, -954.640367867359
DataValue, -1.92, 0.8, 0, -4.1310600000000004E-05, 4.11926E-05, 8E-15, -928.06982300771722
DataValue, -1.86, 0.8, 0, -3.8717800000000004E-05, 3.8591000000000004E-05, 1.8000000000000002E-14, -903.03065682269278
DataValue, -1.8, 0.8, 0, -3.61907E-05, 3.60668E-05, -1.8000000000000002E-14, -870.97887354776958
DataValue, -1.74, 0.8, 0, -3.37494E-05, 3.36241E-05, 1.2000000000000001E-14, -843.661023995936
DataValue, -1.68, 0.8, 0, -3.14138E-05, 3.12849E-05, 3.0000000000000002E-15, -813.33639625303147
DataValue, -1.62, 0.8, 0, -2.91381E-05, 2.9011800000000002E-05, 4E-15, -783.93152164184767
DataValue, -1.56, 0.8, 0, -2.6982800000000002E-05, 2.68445E-05, 5.0000000000000008E-15, -763.310908515105
DataValue, -1.5, 0.8, 0, -2.49142E-05, 2.47913E-05, -1.3000000000000001E-14, -737.95263369666179
DataValue, -1.44, 0.8, 0, -2.2937E-05, 2.2815700000000002E-05, -4.3000000000000006E-14, -708.82223349673268
DataValue, -1.3800000000000001, 0.8, 0, -2.10517E-05, 2.0930300000000002E-05, -3.4E-14, -684.61124280352522
DataValue, -1.32, 0.8, 0, -1.9261600000000002E-05, 1.9147400000000002E-05, 3.0000000000000002E-15, -655.20619495968833
DataValue, -1.26, 0.8, 0, -1.75533E-05, 1.7427500000000002E-05, -2.7000000000000002E-14, -630.42260014349358
DataValue, -1.2, 0.8, 0, -1.59445E-05, 1.58286E-05, -6.4E-14, -611.65270772037388
DataValue, -1.1400000000000001, 0.8, 0, -1.4427800000000001E-05, 1.43229E-05, -4.4E-14, -584.51959978387742
DataValue, -1.08, 0.8, 0, -1.30003E-05, 1.28909E-05, -8.2E-14, -564.74522583293856
DataValue, -1.02, 0.8, 0, -1.1675900000000001E-05, 1.15811E-05, -5.2000000000000006E-14, -544.930239127946
DataValue, -0.96, 0.8, 0, -1.0438100000000001E-05, 1.0343E-05, -6.8E-14, -518.11709466741479
