
SetupTitle, I/V Sweep - Unit (transfer)
PrimitiveTest, I/V Sweep
TestParameter, Context.MainFrame, B1500A
TestParameter, Channel.UnitType, SMU, SMU, SMU
TestParameter, Channel.Unit, SMU3:HR, SMU1:HR, SMU2:HR
TestParameter, Channel.IName, IG, ID, IS
TestParameter, Channel.VName, VG, VD, VS
TestParameter, Channel.Mode, V, V, COMMON
TestParameter, Channel.Func, VAR1, VAR2, CONST
TestParameter, Channel.Index, 
TestParameter, Channel.Time, 
TestParameter, Measurement.Port.Unit, SMU3:HR, SMU1:HR, SMU2:HR
TestParameter, Measurement.Port.SeriesResistor, NONE, NONE, NONE
TestParameter, Measurement.Port.Filter, ON, ON, ON
TestParameter, Measurement.Port.OutputVoltageComparison, 0, 0, 0
TestParameter, Measurement.Primary.Locus, Single
TestParameter, Measurement.Primary.Scale, LINEAR
TestParameter, Measurement.Primary.Start, -3
TestParameter, Measurement.Primary.Stop, 3
TestParameter, Measurement.Primary.Step, 0.06
TestParameter, Measurement.Primary.Compliance, 0.1
TestParameter, Measurement.Primary.PowerCompliance, 0
TestParameter, Measurement.Aborting.Condition, CONTINUE AT ANY
TestParameter, Measurement.PostOutput.Value, START
TestParameter, Measurement.PostOutput.Retention, OFF
TestParameter, Measurement.Secondary.Start, 0.1
TestParameter, Measurement.Secondary.Count, 5
TestParameter, Measurement.Secondary.Step, 0.70000000000000007
TestParameter, Measurement.Secondary.Compliance, 0.1
TestParameter, Measurement.Secondary.PowerCompliance, 0
TestParameter, Measurement.Bias.Source, -3, 0.1, 0
TestParameter, Measurement.Bias.Compliance, 0.1, 0.1, 0.1
TestParameter, Measurement.Monitor.Unit, SMU3:HR, SMU1:HR, SMU2:HR
TestParameter, Measurement.Monitor.Adc, HR ADC, HR ADC, HR ADC
TestParameter, Measurement.Monitor.Measurement, Compliance Side, Compliance Side, Compliance Side
TestParameter, Measurement.Monitor.RangingMode, LIMITED, LIMITED, LIMITED
TestParameter, Measurement.Monitor.RangeBoundary, 1nA, 1nA, 1nA
TestParameter, Measurement.Monitor.RangeRating, BY FULL RANGE, BY FULL RANGE, BY FULL RANGE
TestParameter, Measurement.Monitor.RangeRatingCoeff, 50, 50, 50
TestParameter, Measurement.Timing.Hold, 0
TestParameter, Measurement.Timing.Delay, 0
TestParameter, Measurement.Adc.HighSpeed.Mode, PLC
TestParameter, Measurement.Adc.HighSpeed.Coeff, 5
TestParameter, Measurement.Adc.HighResolution.AutoZero, OFF
TestParameter, Measurement.Adc.HighResolution.Mode, PLC
TestParameter, Measurement.Adc.HighResolution.Coeff, 5
TestParameter, Measurement.WaitTime.Source.Coeff, 1
TestParameter, Measurement.WaitTime.Source.Offset, 0
TestParameter, Measurement.WaitTime.Monitor.Coeff, 1
TestParameter, Measurement.WaitTime.Monitor.Offset, 0
TestParameter, Function.User.Name, SS
TestParameter, Function.User.Unit, mV/dec
TestParameter, Function.User.Definition, diff(VG,log(ID))*1000
TestParameter, Output.Graph.Enabled, true
TestParameter, Output.Graph.AutoScaling, false
TestParameter, Output.Graph.XAxis.Data, VG
TestParameter, Output.Graph.XAxis.Scale, Linear
TestParameter, Output.Graph.XAxis.Left, -3
TestParameter, Output.Graph.XAxis.Right, 3
TestParameter, Output.Graph.XAxis.RunTimeAutoScale, true
TestParameter, Output.Graph.YAxis.Data, ID, IG
TestParameter, Output.Graph.YAxis.Scale, Log, Log
TestParameter, Output.Graph.YAxis.Bottom, 0, 1E-15
TestParameter, Output.Graph.YAxis.Top, 0.0001, 1E-12
TestParameter, Output.Graph.YAxis.Group, , 
TestParameter, Output.Graph.YAxis.RunTimeAutoScale, true, true
TestParameter, Output.List.Data, VG, VD, VS, IG, ID, IS, SS
TestParameter, Output.Scalar.Data, SS
TestParameter, AutoAnalysis.Interpolation, false
TestParameter, AutoAnalysis.Var2StepCount, 1
TestParameter, AutoAnalysis.Var2StepScript, 
TestParameter, AutoAnalysis.Line1.Enabled, false
TestParameter, AutoAnalysis.Line1.Type, 1
TestParameter, AutoAnalysis.Line1.Fix, True
TestParameter, AutoAnalysis.Line1.YAxis, 0
TestParameter, AutoAnalysis.Line1.Point1.Type, 0
TestParameter, AutoAnalysis.Line1.Point1.XY.X, 
TestParameter, AutoAnalysis.Line1.Point1.XY.Y, 
TestParameter, AutoAnalysis.Line1.Point1.Data.Var, 
TestParameter, AutoAnalysis.Line1.Point1.Data.Condition, 
TestParameter, AutoAnalysis.Line1.Point1.Data.Start, false
TestParameter, AutoAnalysis.Line1.Point1.Data.StartVar, 
TestParameter, AutoAnalysis.Line1.Point1.Data.StartCondition, 
TestParameter, AutoAnalysis.Line1.Point2.Type, 0
TestParameter, AutoAnalysis.Line1.Point2.XY.X, 
TestParameter, AutoAnalysis.Line1.Point2.XY.Y, 
TestParameter, AutoAnalysis.Line1.Point2.Data.Var, 
TestParameter, AutoAnalysis.Line1.Point2.Data.Condition, 
TestParameter, AutoAnalysis.Line1.Point2.Data.Start, false
TestParameter, AutoAnalysis.Line1.Point2.Data.StartVar, 
TestParameter, AutoAnalysis.Line1.Point2.Data.StartCondition, 
TestParameter, AutoAnalysis.Line1.GradientExpr, 0
TestParameter, AutoAnalysis.Line2.Enabled, false
TestParameter, AutoAnalysis.Line2.Type, 1
TestParameter, AutoAnalysis.Line2.Fix, True
TestParameter, AutoAnalysis.Line2.YAxis, 0
TestParameter, AutoAnalysis.Line2.Point1.Type, 0
TestParameter, AutoAnalysis.Line2.Point1.XY.X, 
TestParameter, AutoAnalysis.Line2.Point1.XY.Y, 
TestParameter, AutoAnalysis.Line2.Point1.Data.Var, 
TestParameter, AutoAnalysis.Line2.Point1.Data.Condition, 
TestParameter, AutoAnalysis.Line2.Point1.Data.Start, false
TestParameter, AutoAnalysis.Line2.Point1.Data.StartVar, 
TestParameter, AutoAnalysis.Line2.Point1.Data.StartCondition, 
TestParameter, AutoAnalysis.Line2.Point2.Type, 0
TestParameter, AutoAnalysis.Line2.Point2.XY.X, 
TestParameter, AutoAnalysis.Line2.Point2.XY.Y, 
TestParameter, AutoAnalysis.Line2.Point2.Data.Var, 
TestParameter, AutoAnalysis.Line2.Point2.Data.Condition, 
TestParameter, AutoAnalysis.Line2.Point2.Data.Start, false
TestParameter, AutoAnalysis.Line2.Point2.Data.StartVar, 
TestParameter, AutoAnalysis.Line2.Point2.Data.StartCondition, 
TestParameter, AutoAnalysis.Line2.GradientExpr, 0
TestParameter, AutoAnalysis.Marker.Enabled, false
TestParameter, AutoAnalysis.Marker.Data.Var, 
TestParameter, AutoAnalysis.Marker.Data.Condition, 
TestParameter, AutoAnalysis.Marker.Data.Start, false
TestParameter, AutoAnalysis.Marker.Data.StartVar, 
TestParameter, AutoAnalysis.Marker.Data.StartCondition, 
MetaData, TestRecord.EntryPoint, true
MetaData, TestRecord.RecordTime, 04/09/2026 11:11:14
MetaData, TestRecord.TestTarget, 260331_WF02_#5_40_20_1_R2_TRANSFER_SWEEP
MetaData, TestRecord.IterationIndex, 3
MetaData, TestRecord.Preservation, true
MetaData, TestRecord.Flag, 
MetaData, TestRecord.Remarks, 
MetaData, TestRecord.LinkKey, ceb71ab9-4ec2-427f-98ac-58104fbc0645
MetaData, TestRecord.Parameters, 
Dimension1, 101, 101, 101, 101, 101, 101, 101
Dimension2, 5, 5, 5, 5, 5, 5, 5
DataName, VG, VD, VS, IG, ID, IS, SS
DataValue, -3, 0.1, 0, -2.652E-12, 2.5100000000000004E-13, 2.46E-13, -72.729690584899075
DataValue, -2.94, 0.1, 0, -1.3270000000000001E-12, 1.1000000000000001E-13, 1.52E-13, -52.025141174745563
DataValue, -2.88, 0.1, 0, -1.032E-12, 2.5E-14, 9.2000000000000012E-14, -85.430929640228328
DataValue, -2.82, 0.1, 0, -9.25E-13, -2.7000000000000002E-14, 7E-14, -206.96131803738132
DataValue, -2.7600000000000002, 0.1, 0, -7.79E-13, -1.4E-14, 5.1000000000000004E-14, -1559.2304655512883
DataValue, -2.7, 0.1, 0, -7.05E-13, 2.5E-14, 1.5000000000000002E-14, 80.640985332132672
DataValue, -2.64, 0.1, 0, -6.2400000000000007E-13, -6.2E-14, 5.0000000000000008E-15, 168.31479394158987
DataValue, -2.58, 0.1, 0, -5.7400000000000008E-13, -5.1000000000000004E-14, 2.1000000000000002E-14, -144.35265022620175
DataValue, -2.52, 0.1, 0, -5.21E-13, -2.7000000000000002E-14, 1.0000000000000002E-14, -295.95641548516994
DataValue, -2.46, 0.1, 0, -4.67E-13, -3.4E-14, 2.5E-14, 177.92142031748523
DataValue, -2.4, 0.1, 0, -4.4000000000000004E-13, -5.3E-14, -3.8E-14, 93.9216623747616
DataValue, -2.34, 0.1, 0, -4.13E-13, -1.22E-13, 3.0000000000000002E-15, 1331.0986111193984
DataValue, -2.2800000000000002, 0.1, 0, -3.8200000000000004E-13, -5.8E-14, -3.4E-14, -147.23257995598391
DataValue, -2.22, 0.1, 0, -3.5900000000000004E-13, -5.4000000000000003E-14, -2.3000000000000003E-14, 280.24722342308138
DataValue, -2.16, 0.1, 0, -3.0900000000000005E-13, -8.9000000000000012E-14, -2.4000000000000002E-14, 240.16700100418515
DataValue, -2.1, 0.1, 0, -3.2400000000000003E-13, -8.9000000000000012E-14, -2.6000000000000003E-14, 1584.9572398205805
DataValue, -2.04, 0.1, 0, -2.9800000000000004E-13, -9.6000000000000007E-14, -2.6000000000000003E-14, -605.51952670559547
DataValue, -1.98, 0.1, 0, -2.44E-13, -7.3E-14, -2.3000000000000003E-14, -544.11214754373816
DataValue, -1.92, 0.1, 0, -2.38E-13, -7.7E-14, -3.8E-14, 1811.3375546007114
DataValue, -1.86, 0.1, 0, -2.23E-13, -7.8000000000000008E-14, -4.8000000000000004E-14, 571.234162090671
DataValue, -1.8, 0.1, 0, -2.17E-13, -9.5000000000000012E-14, -5.9E-14, 503.33243096741808
DataValue, -1.74, 0.1, 0, -1.7400000000000002E-13, -9.9000000000000007E-14, -5.700000000000001E-14, -1839.3476410574676
DataValue, -1.68, 0.1, 0, -1.88E-13, -8.9000000000000012E-14, -8.3000000000000012E-14, 972.61267654157814
DataValue, -1.62, 0.1, 0, -1.4400000000000002E-13, -1.12E-13, -4.5000000000000004E-14, 1029.7440164186735
DataValue, -1.56, 0.1, 0, -1.1300000000000001E-13, -1E-13, -2.3000000000000003E-14, 1552.5604935361243
DataValue, -1.5, 0.1, 0, -9.1E-14, -1.2100000000000002E-13, -5.6E-14, 444.3997786241631
DataValue, -1.44, 0.1, 0, -6.6000000000000009E-14, -1.3100000000000002E-13, -8.1000000000000008E-14, -1754.3160260671757
DataValue, -1.3800000000000001, 0.1, 0, -1.06E-13, -1.1300000000000001E-13, -6.6000000000000009E-14, 741.86141301991393
DataValue, -1.32, 0.1, 0, -4.9000000000000006E-14, -1.54E-13, -7.5000000000000009E-14, 3449.6521458547577
DataValue, -1.26, 0.1, 0, -3.0000000000000005E-14, -1.17E-13, -6.9000000000000009E-14, -387.64099250964392
DataValue, -1.2, 0.1, 0, -4.7E-14, -1.1300000000000001E-13, -3.0000000000000005E-14, -326.331012990489
DataValue, -1.1400000000000001, 0.1, 0, 3.5E-14, -8.1000000000000008E-14, -6.8E-14, -347.46232508467608
DataValue, -1.08, 0.1, 0, -2E-15, -8.0000000000000013E-14, -6.0000000000000009E-14, 326.33101299048963
DataValue, -1.02, 0.1, 0, 1.3000000000000001E-14, -1.17E-13, -9.6000000000000007E-14, 217.21528973931976
DataValue, -0.96, 0.1, 0, 2.5E-14, -1.3900000000000001E-13, -6.3000000000000009E-14, -3449.6521458547545
DataValue, -0.9, 0.1, 0, 2.9E-14, -1.1300000000000001E-13, -9.6000000000000007E-14, 16739.928315167002
DataValue, -0.84, 0.1, 0, 6.4E-14, -1.4E-13, -5.8E-14, 1188.9909121118449
DataValue, -0.78, 0.1, 0, 4.3000000000000006E-14, -1.25E-13, -6.3000000000000009E-14, -1806.0022645594272
DataValue, -0.72, 0.1, 0, 3.5E-14, -1.3100000000000002E-13, -7.1E-14, -1439.1662805129824
DataValue, -0.66, 0.1, 0, 1.0200000000000001E-13, -1.1500000000000002E-13, -9.2000000000000012E-14, 983.48603549264442
DataValue, -0.6, 0.1, 0, 1.09E-13, -1.48E-13, -9.0000000000000008E-14, 1313.6320837833355
DataValue, -0.54, 0.1, 0, 1.0100000000000001E-13, -1.2600000000000002E-13, -9.2000000000000012E-14, 1673.8285966662193
DataValue, -0.48, 0.1, 0, 1.3300000000000001E-13, -1.59E-13, -1.2700000000000001E-13, 489.55122661120083
DataValue, -0.42, 0.1, 0, 1.7900000000000002E-13, -1.6100000000000002E-13, -5.700000000000001E-14, -1061.2224106326175
DataValue, -0.36, 0.1, 0, 1.36E-13, -1.42E-13, -1.2700000000000001E-13, -432.61433272672679
DataValue, -0.3, 0.1, 0, 1.53E-13, -1.22E-13, -1.09E-13, -1488.2846990977821
DataValue, -0.24, 0.1, 0, 1.2600000000000002E-13, -1.3100000000000002E-13, -9.7E-14, 1390.0459172823644
DataValue, -0.18, 0.1, 0, 1.1000000000000001E-13, -1.3300000000000001E-13, -9.0000000000000008E-14, -1061.7271495321368
DataValue, -0.12, 0.1, 0, 1.69E-13, -1.17E-13, -1.0200000000000001E-13, 672.06155116612933
DataValue, -0.06, 0.1, 0, 1.1000000000000001E-13, -1.59E-13, -1.5500000000000002E-13, 343.03958742398117
DataValue, 0, 0.1, 0, 3.5500000000000005E-13, -1.6600000000000003E-13, -2.0800000000000002E-13, 4829.7515425709526
DataValue, 0.06, 0.1, 0, 4.2800000000000004E-13, 1.63E-13, -4.1800000000000004E-13, 52.976719381858437
DataValue, 0.12, 0.1, 0, 2.7800000000000003E-13, 1.5990000000000002E-12, -1.7970000000000001E-12, 30.68911785910802
DataValue, 0.18, 0.1, 0, 2.7800000000000003E-13, 8.1350000000000012E-12, -8.269E-12, 38.963106369596737
DataValue, 0.24, 0.1, 0, 2.5E-13, 3.4786E-11, -3.4437E-11, 43.84875636712205
DataValue, 0.3, 0.1, 0, 2.67E-13, 1.25569E-10, -1.23634E-10, 50.027808721843776
DataValue, 0.36, 0.1, 0, 2.7500000000000004E-13, 3.8294100000000003E-10, -3.76424E-10, 57.850738251973439
DataValue, 0.42, 0.1, 0, 2.72E-13, 9.9940400000000012E-10, -9.82562E-10, 68.0312097110072
DataValue, 0.48, 0.1, 0, 2.9900000000000004E-13, 2.23451E-09, -2.19137E-09, 80.086945803384964
DataValue, 0.54, 0.1, 0, 3.2500000000000003E-13, 4.47173E-09, -4.41239E-09, 93.672617302149192
DataValue, 0.6, 0.1, 0, 2.81E-13, 8.04523E-09, -7.94718E-09, 110.66550394361498
DataValue, 0.66, 0.1, 0, 2.95E-13, 1.3225199999999999E-08, -1.30865E-08, 129.60417008613095
DataValue, 0.72, 0.1, 0, 2.7400000000000004E-13, 2.03072E-08, -2.01346E-08, 149.70728079263142
DataValue, 0.78, 0.1, 0, 2.37E-13, 2.94793E-08, -2.9250799999999997E-08, 172.01866191415164
DataValue, 0.84, 0.1, 0, 3.0100000000000003E-13, 4.0795599999999995E-08, -4.05202E-08, 196.18781871654232
DataValue, 0.9, 0.1, 0, 2.9800000000000004E-13, 5.4344699999999992E-08, -5.4015699999999996E-08, 221.34446849985392
DataValue, 0.96, 0.1, 0, 3.0100000000000003E-13, 7.0155599999999988E-08, -6.97661E-08, 247.95702262263887
DataValue, 1.02, 0.1, 0, 2.9000000000000003E-13, 8.81731E-08, -8.7743199999999991E-08, 275.71945767271131
DataValue, 1.08, 0.1, 0, 2.84E-13, 1.0841219999999999E-07, -1.0792829999999999E-07, 304.93524058040265
DataValue, 1.1400000000000001, 0.1, 0, 3.3700000000000003E-13, 1.3069E-07, -1.30169E-07, 334.62868175632269
DataValue, 1.2, 0.1, 0, 3.06E-13, 1.5517399999999998E-07, -1.54609E-07, 364.42409163677104
DataValue, 1.26, 0.1, 0, 3.27E-13, 1.81656E-07, -1.81027E-07, 395.53841481404555
DataValue, 1.32, 0.1, 0, 3.2500000000000003E-13, 2.1017299999999999E-07, -2.0949699999999999E-07, 427.79275073097932
DataValue, 1.3800000000000001, 0.1, 0, 3.1200000000000003E-13, 2.40477E-07, -2.39779E-07, 461.2435788938584
DataValue, 1.44, 0.1, 0, 3.31E-13, 2.72625E-07, -2.71823E-07, 495.16788470731615
DataValue, 1.5, 0.1, 0, 3.6000000000000003E-13, 3.06423E-07, -3.05571E-07, 530.14352166363392
DataValue, 1.56, 0.1, 0, 3.62E-13, 3.41877E-07, -3.4095299999999997E-07, 566.13039828945887
DataValue, 1.62, 0.1, 0, 3.3E-13, 3.7877099999999997E-07, -3.7778899999999997E-07, 602.95805795867318
DataValue, 1.68, 0.1, 0, 3.3400000000000004E-13, 4.1716E-07, -4.16118E-07, 639.36594541536715
DataValue, 1.74, 0.1, 0, 3.4800000000000003E-13, 4.5697E-07, -4.55861E-07, 678.18269353663652
DataValue, 1.8, 0.1, 0, 4.0300000000000005E-13, 4.97907E-07, -4.96717E-07, 716.80070271350337
DataValue, 1.86, 0.1, 0, 3.5500000000000005E-13, 5.40248E-07, -5.3897E-07, 756.34933645936189
DataValue, 1.92, 0.1, 0, 3.76E-13, 5.83515E-07, -5.82157E-07, 797.75195028213329
DataValue, 1.98, 0.1, 0, 3.8100000000000004E-13, 6.27944E-07, -6.2653E-07, 839.01830508076353
DataValue, 2.04, 0.1, 0, 3.8500000000000003E-13, 6.73235E-07, -6.71746E-07, 880.08723287765872
DataValue, 2.1, 0.1, 0, 3.4E-13, 7.1967599999999994E-07, -7.18053E-07, 922.92994093292361
DataValue, 2.16, 0.1, 0, 3.52E-13, 7.66715E-07, -7.6503E-07, 966.74343541268411
DataValue, 2.22, 0.1, 0, 3.66E-13, 8.14789E-07, -8.1302499999999994E-07, 1008.1847133097976
DataValue, 2.2800000000000002, 0.1, 0, 4.2800000000000004E-13, 8.63627E-07, -8.6177E-07, 1054.3484690691582
DataValue, 2.34, 0.1, 0, 3.7900000000000005E-13, 9.13007E-07, -9.11022E-07, 1101.7498965706764
DataValue, 2.4, 0.1, 0, 4.0300000000000005E-13, 9.63005E-07, -9.60998E-07, 1146.8598808956351
DataValue, 2.46, 0.1, 0, 3.87E-13, 1.013715E-06, -1.011539E-06, 1193.4097726755751
DataValue, 2.52, 0.1, 0, 4.0500000000000004E-13, 1.064873E-06, -1.062671E-06, 1242.0136525231346
DataValue, 2.58, 0.1, 0, 3.5800000000000004E-13, 1.116545E-06, -1.114202E-06, 1316.1071449484273
DataValue, 2.64, 0.1, 0, 3.5700000000000004E-13, 1.1665300000000002E-06, -1.16329E-06, 1374.9672841692161
DataValue, 2.7, 0.1, 0, 3.8300000000000003E-13, 1.21837E-06, -1.2158800000000002E-06, 1391.4266329136165
DataValue, 2.7600000000000002, 0.1, 0, 4.2700000000000005E-13, 1.2716E-06, -1.2689600000000002E-06, 1428.4997588018473
DataValue, 2.82, 0.1, 0, 4.33E-13, 1.32514E-06, -1.32247E-06, 1480.3685801306081
DataValue, 2.88, 0.1, 0, 3.8000000000000005E-13, 1.37897E-06, -1.3761300000000002E-06, 1533.7800135690834
DataValue, 2.94, 0.1, 0, 3.9500000000000003E-13, 1.4329800000000002E-06, -1.4301400000000001E-06, 1587.8947007259724
DataValue, 3, 0.1, 0, 4.33E-13, 1.48722E-06, -1.4842400000000002E-06, 1614.9691094628856
DataValue, -3, 0.8, 0, -3.783E-12, 8.3400000000000008E-13, 3.88E-13, -110.26401888550329
DataValue, -2.94, 0.8, 0, -2.0160000000000003E-12, 4.8400000000000006E-13, 2.84E-13, -143.78331442726616
DataValue, -2.88, 0.8, 0, -1.6050000000000001E-12, 3.62E-13, 2.32E-13, -271.3139769249276
DataValue, -2.82, 0.8, 0, -1.3510000000000002E-12, 3.1100000000000004E-13, 1.8600000000000002E-13, -409.24588377211677
DataValue, -2.7600000000000002, 0.8, 0, -1.1690000000000002E-12, 2.7E-13, 1.71E-13, -321.01277634188318
DataValue, -2.7, 0.8, 0, -1.0410000000000001E-12, 2.1400000000000002E-13, 9.3000000000000008E-14, -428.10973492106876
DataValue, -2.64, 0.8, 0, -9.3900000000000014E-13, 2.0400000000000001E-13, 1.0700000000000001E-13, -403.94273313346883
DataValue, -2.58, 0.8, 0, -8.4100000000000005E-13, 1.59E-13, 1.0100000000000001E-13, -1104.6281609145349
DataValue, -2.52, 0.8, 0, -7.56E-13, 1.83E-13, 8.8E-14, -342.46054328904404
DataValue, -2.46, 0.8, 0, -7.110000000000001E-13, 1.12E-13, 3.9000000000000004E-14, -151.77471213500206
DataValue, -2.4, 0.8, 0, -6.1800000000000009E-13, 8.3000000000000012E-14, 6.5E-14, -226.90995958666724
DataValue, -2.34, 0.8, 0, -5.7200000000000009E-13, 6.6000000000000009E-14, 4.5000000000000004E-14, -319.32784472310755
DataValue, -2.2800000000000002, 0.8, 0, -5.14E-13, 5.700000000000001E-14, 4.8000000000000004E-14, 434.38383075954795
DataValue, -2.22, 0.8, 0, -4.66E-13, 8.7000000000000008E-14, -2.4000000000000002E-14, -207.85866316369666
DataValue, -2.16, 0.8, 0, -4.63E-13, 3.2E-14, -1.5000000000000002E-14, -201.77999966180394
DataValue, -2.1, 0.8, 0, -4.35E-13, 4.8000000000000004E-14, 9.5000000000000012E-14, -173.1234049066762
DataValue, -2.04, 0.8, 0, -4.1600000000000004E-13, 1.6E-14, -2.9E-14, -91.86591242460652
DataValue, -1.98, 0.8, 0, -3.5500000000000005E-13, 1.3000000000000001E-14, 5.700000000000001E-14, 1018.82244188448
DataValue, -1.92, 0.8, 0, -3.6800000000000005E-13, 1.8000000000000002E-14, -1.3000000000000001E-14, -1499.1996583803323
DataValue, -1.86, 0.8, 0, -3.2300000000000004E-13, 1.2000000000000001E-14, -2.3000000000000003E-14, -109.22870719522061
DataValue, -1.8, 0.8, 0, -3.04E-13, 6.0000000000000005E-15, -6.0000000000000005E-15, 1499.199658380335
DataValue, -1.74, 0.8, 0, -2.7600000000000004E-13, 1.3000000000000001E-14, -3.1E-14, 173.12340490667529
DataValue, -1.68, 0.8, 0, -2.94E-13, -1.2000000000000001E-14, 1E-15, 
DataValue, -1.62, 0.8, 0, -2.2700000000000002E-13, 1.3000000000000001E-14, -2.7000000000000002E-14, -109.2287071952199
DataValue, -1.56, 0.8, 0, -2.2900000000000003E-13, 4E-15, -4.3000000000000006E-14, 74.560192147153529
DataValue, -1.5, 0.8, 0, -1.8600000000000002E-13, -6.5E-14, -9.0000000000000011E-15, 173.12340490667529
DataValue, -1.44, 0.8, 0, -1.7300000000000002E-13, -8E-15, -2.1000000000000002E-14, -39.014557544813762
DataValue, -1.3800000000000001, 0.8, 0, -1.25E-13, 3.0000000000000002E-15, -2.9E-14, 62.842277505240475
DataValue, -1.32, 0.8, 0, -1.16E-13, -5.4000000000000003E-14, -4.9000000000000006E-14, 109.22870719522011
DataValue, -1.26, 0.8, 0, -1.75E-13, 9.0000000000000011E-15, -8.5E-14, -182.70971208961845
DataValue, -1.2, 0.8, 0, -9.0000000000000008E-14, -2.8E-14, -3.9000000000000004E-14, 173.12340490667674
