
SetupTitle, I/V Sweep - Unit (transfer)
PrimitiveTest, I/V Sweep
TestParameter, Context.MainFrame, B1500A
TestParameter, Channel.UnitType, SMU, SMU, SMU
TestParameter, Channel.Unit, SMU3:HR, SMU1:HR, SMU2:HR
TestParameter, Channel.IName, IG, ID, IS
TestParameter, Channel.VName, VG, VD, VS
TestParameter, Channel.Mode, V, V, COMMON
TestParameter, Channel.Func, VAR1, VAR2, CONST
TestParameter, Channel.Index, 
TestParameter, Channel.Time, 
TestParameter, Measurement.Port.Unit, SMU3:HR, SMU1:HR, SMU2:HR
TestParameter, Measurement.Port.SeriesResistor, NONE, NONE, NONE
TestParameter, Measurement.Port.Filter, ON, ON, ON
TestParameter, Measurement.Port.OutputVoltageComparison, 0, 0, 0
TestParameter, Measurement.Primary.Locus, Single
TestParameter, Measurement.Primary.Scale, LINEAR
TestParameter, Measurement.Primary.Start, -3
TestParameter, Measurement.Primary.Stop, 3
TestParameter, Measurement.Primary.Step, 0.06
TestParameter, Measurement.Primary.Compliance, 0.1
TestParameter, Measurement.Primary.PowerCompliance, 0
TestParameter, Measurement.Aborting.Condition, CONTINUE AT ANY
TestParameter, Measurement.PostOutput.Value, START
TestParameter, Measurement.PostOutput.Retention, OFF
TestParameter, Measurement.Secondary.Start, 0.1
TestParameter, Measurement.Secondary.Count, 5
TestParameter, Measurement.Secondary.Step, 0.70000000000000007
TestParameter, Measurement.Secondary.Compliance, 0.1
TestParameter, Measurement.Secondary.PowerCompliance, 0
TestParameter, Measurement.Bias.Source, -3, 0.1, 0
TestParameter, Measurement.Bias.Compliance, 0.1, 0.1, 0.1
TestParameter, Measurement.Monitor.Unit, SMU3:HR, SMU1:HR, SMU2:HR
TestParameter, Measurement.Monitor.Adc, HR ADC, HR ADC, HR ADC
TestParameter, Measurement.Monitor.Measurement, Compliance Side, Compliance Side, Compliance Side
TestParameter, Measurement.Monitor.RangingMode, LIMITED, LIMITED, LIMITED
TestParameter, Measurement.Monitor.RangeBoundary, 1nA, 1nA, 1nA
TestParameter, Measurement.Monitor.RangeRating, BY FULL RANGE, BY FULL RANGE, BY FULL RANGE
TestParameter, Measurement.Monitor.RangeRatingCoeff, 50, 50, 50
TestParameter, Measurement.Timing.Hold, 0
TestParameter, Measurement.Timing.Delay, 0
TestParameter, Measurement.Adc.HighSpeed.Mode, PLC
TestParameter, Measurement.Adc.HighSpeed.Coeff, 5
TestParameter, Measurement.Adc.HighResolution.AutoZero, OFF
TestParameter, Measurement.Adc.HighResolution.Mode, PLC
TestParameter, Measurement.Adc.HighResolution.Coeff, 5
TestParameter, Measurement.WaitTime.Source.Coeff, 1
TestParameter, Measurement.WaitTime.Source.Offset, 0
TestParameter, Measurement.WaitTime.Monitor.Coeff, 1
TestParameter, Measurement.WaitTime.Monitor.Offset, 0
TestParameter, Function.User.Name, SS
TestParameter, Function.User.Unit, mV/dec
TestParameter, Function.User.Definition, diff(VG,log(ID))*1000
TestParameter, Output.Graph.Enabled, true
TestParameter, Output.Graph.AutoScaling, false
TestParameter, Output.Graph.XAxis.Data, VG
TestParameter, Output.Graph.XAxis.Scale, Linear
TestParameter, Output.Graph.XAxis.Left, -3
TestParameter, Output.Graph.XAxis.Right, 3
TestParameter, Output.Graph.XAxis.RunTimeAutoScale, true
TestParameter, Output.Graph.YAxis.Data, ID, IG
TestParameter, Output.Graph.YAxis.Scale, Log, Log
TestParameter, Output.Graph.YAxis.Bottom, 0, 1E-15
TestParameter, Output.Graph.YAxis.Top, 0.0001, 1E-12
TestParameter, Output.Graph.YAxis.Group, , 
TestParameter, Output.Graph.YAxis.RunTimeAutoScale, true, true
TestParameter, Output.List.Data, VG, VD, VS, IG, ID, IS, SS
TestParameter, Output.Scalar.Data, SS
TestParameter, AutoAnalysis.Interpolation, false
TestParameter, AutoAnalysis.Var2StepCount, 1
TestParameter, AutoAnalysis.Var2StepScript, 
TestParameter, AutoAnalysis.Line1.Enabled, false
TestParameter, AutoAnalysis.Line1.Type, 1
TestParameter, AutoAnalysis.Line1.Fix, True
TestParameter, AutoAnalysis.Line1.YAxis, 0
TestParameter, AutoAnalysis.Line1.Point1.Type, 0
TestParameter, AutoAnalysis.Line1.Point1.XY.X, 
TestParameter, AutoAnalysis.Line1.Point1.XY.Y, 
TestParameter, AutoAnalysis.Line1.Point1.Data.Var, 
TestParameter, AutoAnalysis.Line1.Point1.Data.Condition, 
TestParameter, AutoAnalysis.Line1.Point1.Data.Start, false
TestParameter, AutoAnalysis.Line1.Point1.Data.StartVar, 
TestParameter, AutoAnalysis.Line1.Point1.Data.StartCondition, 
TestParameter, AutoAnalysis.Line1.Point2.Type, 0
TestParameter, AutoAnalysis.Line1.Point2.XY.X, 
TestParameter, AutoAnalysis.Line1.Point2.XY.Y, 
TestParameter, AutoAnalysis.Line1.Point2.Data.Var, 
TestParameter, AutoAnalysis.Line1.Point2.Data.Condition, 
TestParameter, AutoAnalysis.Line1.Point2.Data.Start, false
TestParameter, AutoAnalysis.Line1.Point2.Data.StartVar, 
TestParameter, AutoAnalysis.Line1.Point2.Data.StartCondition, 
TestParameter, AutoAnalysis.Line1.GradientExpr, 0
TestParameter, AutoAnalysis.Line2.Enabled, false
TestParameter, AutoAnalysis.Line2.Type, 1
TestParameter, AutoAnalysis.Line2.Fix, True
TestParameter, AutoAnalysis.Line2.YAxis, 0
TestParameter, AutoAnalysis.Line2.Point1.Type, 0
TestParameter, AutoAnalysis.Line2.Point1.XY.X, 
TestParameter, AutoAnalysis.Line2.Point1.XY.Y, 
TestParameter, AutoAnalysis.Line2.Point1.Data.Var, 
TestParameter, AutoAnalysis.Line2.Point1.Data.Condition, 
TestParameter, AutoAnalysis.Line2.Point1.Data.Start, false
TestParameter, AutoAnalysis.Line2.Point1.Data.StartVar, 
TestParameter, AutoAnalysis.Line2.Point1.Data.StartCondition, 
TestParameter, AutoAnalysis.Line2.Point2.Type, 0
TestParameter, AutoAnalysis.Line2.Point2.XY.X, 
TestParameter, AutoAnalysis.Line2.Point2.XY.Y, 
TestParameter, AutoAnalysis.Line2.Point2.Data.Var, 
TestParameter, AutoAnalysis.Line2.Point2.Data.Condition, 
TestParameter, AutoAnalysis.Line2.Point2.Data.Start, false
TestParameter, AutoAnalysis.Line2.Point2.Data.StartVar, 
TestParameter, AutoAnalysis.Line2.Point2.Data.StartCondition, 
TestParameter, AutoAnalysis.Line2.GradientExpr, 0
TestParameter, AutoAnalysis.Marker.Enabled, false
TestParameter, AutoAnalysis.Marker.Data.Var, 
TestParameter, AutoAnalysis.Marker.Data.Condition, 
TestParameter, AutoAnalysis.Marker.Data.Start, false
TestParameter, AutoAnalysis.Marker.Data.StartVar, 
TestParameter, AutoAnalysis.Marker.Data.StartCondition, 
MetaData, TestRecord.EntryPoint, true
MetaData, TestRecord.RecordTime, 04/09/2026 11:01:11
MetaData, TestRecord.TestTarget, 260331_WF02_#5_40_20_1_R0_TRANSFER_SWEEP
MetaData, TestRecord.IterationIndex, 1
MetaData, TestRecord.Preservation, true
MetaData, TestRecord.Flag, 
MetaData, TestRecord.Remarks, 
MetaData, TestRecord.LinkKey, c53c2f60-b9c2-4e4c-93f2-32a1dc1d2437
MetaData, TestRecord.Parameters, 
Dimension1, 101, 101, 101, 101, 101, 101, 101
Dimension2, 5, 5, 5, 5, 5, 5, 5
DataName, VG, VD, VS, IG, ID, IS, SS
DataValue, -3, 0.1, 0, -1.98E-12, 2.2700000000000002E-13, 2.23E-13, -149.60000823644171
DataValue, -2.94, 0.1, 0, -9.32E-13, 1.52E-13, 1.7900000000000002E-13, -185.80841057446958
DataValue, -2.88, 0.1, 0, -7.4100000000000007E-13, 1.19E-13, 1.19E-13, -190.64826834012243
DataValue, -2.82, 0.1, 0, -6.14E-13, 8.1000000000000008E-14, 1.2700000000000001E-13, -25.109206776716224
DataValue, -2.7600000000000002, 0.1, 0, -5.41E-13, 1E-15, 1E-13, -133.63898154172688
DataValue, -2.7, 0.1, 0, -4.64E-13, 3.3000000000000005E-14, 5E-14, 32.313900967726973
DataValue, -2.64, 0.1, 0, -4.46E-13, 4.1E-14, 6.2E-14, 386.90341196978864
DataValue, -2.58, 0.1, 0, -3.6000000000000003E-13, 4.5000000000000004E-14, 5.6E-14, -484.1908384532677
DataValue, -2.52, 0.1, 0, -3.5500000000000005E-13, 3.2E-14, 6.5E-14, -31.523677321663612
DataValue, -2.46, 0.1, 0, -2.8700000000000004E-13, 1E-15, 4.0000000000000006E-14, -133.21690984510389
DataValue, -2.4, 0.1, 0, -2.82E-13, 1.3000000000000001E-14, 2.2E-14, 109.22870719522082
DataValue, -2.34, 0.1, 0, -2.45E-13, 3.0000000000000002E-15, 7.4E-14, 
DataValue, -2.2800000000000002, 0.1, 0, -2.1500000000000002E-13, 1.3000000000000001E-14, 7.2000000000000009E-14, 141.62670013725833
DataValue, -2.22, 0.1, 0, -2.24E-13, 7E-15, 1.7E-14, -81.836572609285355
DataValue, -2.16, 0.1, 0, -1.5500000000000002E-13, -3.0000000000000002E-15, 1.0000000000000002E-14, 97.391239205243721
DataValue, -2.1, 0.1, 0, -2.11E-13, -2.4000000000000002E-14, 7.3E-14, 63.25377464579207
DataValue, -2.04, 0.1, 0, -1.3700000000000002E-13, -2.0000000000000003E-14, 1.4E-14, -122.34545373879239
DataValue, -1.98, 0.1, 0, -1.25E-13, -9.0000000000000011E-15, 1.0000000000000002E-14, 161.73872477570262
DataValue, -1.92, 0.1, 0, -1.46E-13, -4.2000000000000004E-14, 2.2E-14, 94.599076564139381
DataValue, -1.86, 0.1, 0, -1.1500000000000002E-13, -3.2E-14, 2.5E-14, -95.788272017751538
DataValue, -1.8, 0.1, 0, -1.3300000000000001E-13, -1.2000000000000001E-14, 4.6000000000000006E-14, -0
DataValue, -1.74, 0.1, 0, -8.1000000000000008E-14, 0, 2.1000000000000002E-14, 97.666946874093128
DataValue, -1.68, 0.1, 0, -8.9000000000000012E-14, -4.1E-14, 4.4E-14, 0
DataValue, -1.62, 0.1, 0, -6.8E-14, -3.2E-14, 4.8000000000000004E-14, 302.03739516019044
DataValue, -1.56, 0.1, 0, -3.5E-14, -6.1E-14, 3.0000000000000005E-14, 207.85866316369666
DataValue, -1.5, 0.1, 0, -5.2000000000000006E-14, -5.700000000000001E-14, 6.0000000000000005E-15, -367.32718902994804
DataValue, -1.44, 0.1, 0, -7.6E-14, -4.4E-14, 1.3000000000000001E-14, -94.453788044433708
DataValue, -1.3800000000000001, 0.1, 0, -1.3000000000000001E-14, -1.6E-14, -3.0000000000000002E-15, 434.38383075954874
DataValue, -1.32, 0.1, 0, -2E-15, -5.8E-14, 1.0000000000000002E-14, 85.604311832587555
DataValue, -1.26, 0.1, 0, -6.0000000000000005E-15, -6.5E-14, -1.2000000000000001E-14, -182.0262353549364
DataValue, -1.2, 0.1, 0, -3.0000000000000002E-15, -3.0000000000000005E-14, -1.4E-14, -142.48688733527916
DataValue, -1.1400000000000001, 0.1, 0, 2.8E-14, -2.8E-14, -5.0000000000000008E-15, 165.3035999553523
DataValue, -1.08, 0.1, 0, 3.1E-14, -6.2E-14, 1.8000000000000002E-14, 96.578974080885658
DataValue, -1.02, 0.1, 0, 1.1E-14, -9.7E-14, -3.1E-14, -509.956720242684
DataValue, -0.96, 0.1, 0, 4.6000000000000006E-14, -4.9000000000000006E-14, -6.0000000000000005E-15, -249.80930375809882
DataValue, -0.9, 0.1, 0, 5.2000000000000006E-14, -6.0000000000000009E-14, -2.9E-14, 366.20265964636644
DataValue, -0.84, 0.1, 0, 7.3E-14, -6.8E-14, -3.8E-14, -537.77041412693961
DataValue, -0.78, 0.1, 0, 7.8000000000000008E-14, -4.8000000000000004E-14, -9.0000000000000011E-15, -845.24744074011289
DataValue, -0.72, 0.1, 0, 9.2000000000000012E-14, -5.9E-14, -1.5000000000000002E-14, 184.44865264142595
DataValue, -0.66, 0.1, 0, 1.22E-13, -9.2000000000000012E-14, -3.4E-14, -725.01227750145961
DataValue, -0.6, 0.1, 0, 7.8000000000000008E-14, -5E-14, 4.5000000000000004E-14, -587.37017986512092
DataValue, -0.54, 0.1, 0, 1.22E-13, -7.5000000000000009E-14, -1.0000000000000002E-14, 226.14702432407952
DataValue, -0.48, 0.1, 0, 1.06E-13, -8.5E-14, -2.1000000000000002E-14, 9059.8675481207974
DataValue, -0.42, 0.1, 0, 1.2100000000000002E-13, -7.6E-14, -6.1E-14, -865.88730905429691
DataValue, -0.36, 0.1, 0, 1.4500000000000001E-13, -7.4E-14, -1.2000000000000001E-14, -149.18455430399015
DataValue, -0.3, 0.1, 0, 1.41E-13, -3.4E-14, -2.4000000000000002E-14, -1048.8561460105136
DataValue, -0.24, 0.1, 0, 1.8000000000000002E-13, -6.6000000000000009E-14, 0, 108.26724499971679
DataValue, -0.18, 0.1, 0, 1.6000000000000003E-13, -1.03E-13, -4.6000000000000006E-14, 4019.7014748023621
DataValue, -0.12, 0.1, 0, 1.88E-13, -6.8E-14, -5.9E-14, -99.938222875681291
DataValue, -0.06, 0.1, 0, 2.4000000000000004E-13, 3.1E-14, -5.8E-14, 244.88671631646852
DataValue, 0, 0.1, 0, 3.4500000000000004E-13, -1.1100000000000001E-13, -1.09E-13, 80.360740399123443
DataValue, 0.06, 0.1, 0, 4.22E-13, 1.3800000000000002E-13, -3.06E-13, 47.572228044957647
DataValue, 0.12, 0.1, 0, 2.8900000000000003E-13, 1.383E-12, -1.5110000000000001E-12, 30.56670556747077
DataValue, 0.18, 0.1, 0, 2.9800000000000004E-13, 6.9960000000000005E-12, -7.0140000000000006E-12, 39.201366519652623
DataValue, 0.24, 0.1, 0, 2.37E-13, 2.9529000000000005E-11, -2.9069000000000004E-11, 44.304531548190091
DataValue, 0.3, 0.1, 0, 2.5400000000000003E-13, 1.0499E-10, -1.0295500000000001E-10, 50.574845381227988
DataValue, 0.36, 0.1, 0, 2.6300000000000004E-13, 3.16744E-10, -3.10589E-10, 58.095936678926613
DataValue, 0.42, 0.1, 0, 2.5200000000000004E-13, 8.2833200000000009E-10, -8.1323800000000006E-10, 67.70369789317607
DataValue, 0.48, 0.1, 0, 2.0300000000000002E-13, 1.86408E-09, -1.82533E-09, 78.837111796706424
DataValue, 0.54, 0.1, 0, 2.67E-13, 3.79538E-09, -3.74066E-09, 91.1957857873053
DataValue, 0.6, 0.1, 0, 2.4000000000000004E-13, 6.94914E-09, -6.85824E-09, 107.34234208370435
DataValue, 0.66, 0.1, 0, 2.6600000000000003E-13, 1.16081E-08, -1.1467599999999999E-08, 125.4779534563576
DataValue, 0.72, 0.1, 0, 2.55E-13, 1.80828E-08, -1.7907E-08, 144.761680370979
DataValue, 0.78, 0.1, 0, 2.5300000000000003E-13, 2.6593099999999997E-08, -2.63677E-08, 166.40058860494216
DataValue, 0.84, 0.1, 0, 2.36E-13, 3.71927E-08, -3.6910099999999996E-08, 190.01857413418279
DataValue, 0.9, 0.1, 0, 2.32E-13, 5.0007299999999995E-08, -4.96877E-08, 214.602114570587
DataValue, 0.96, 0.1, 0, 2.69E-13, 6.50585E-08, -6.46781E-08, 240.64957476600753
DataValue, 1.02, 0.1, 0, 2.6600000000000003E-13, 8.2336899999999986E-08, -8.1905899999999987E-08, 267.73847253966727
DataValue, 1.08, 0.1, 0, 2.9800000000000004E-13, 1.018484E-07, -1.013621E-07, 296.50935502156864
DataValue, 1.1400000000000001, 0.1, 0, 2.91E-13, 1.23412E-07, -1.22897E-07, 325.695207619846
DataValue, 1.2, 0.1, 0, 2.68E-13, 1.4722E-07, -1.46661E-07, 354.69587531688359
DataValue, 1.26, 0.1, 0, 2.82E-13, 1.73096E-07, -1.72494E-07, 385.37280073025079
DataValue, 1.32, 0.1, 0, 2.7E-13, 2.01002E-07, -2.00327E-07, 417.40797235871764
DataValue, 1.3800000000000001, 0.1, 0, 2.8700000000000004E-13, 2.3075E-07, -2.30035E-07, 450.42647036103693
DataValue, 1.44, 0.1, 0, 2.71E-13, 2.62363E-07, -2.61597E-07, 483.82398880813895
DataValue, 1.5, 0.1, 0, 3.28E-13, 2.95704E-07, -2.94859E-07, 518.45849730735176
DataValue, 1.56, 0.1, 0, 2.9800000000000004E-13, 3.30691E-07, -3.29832E-07, 554.234055056326
DataValue, 1.62, 0.1, 0, 3.0900000000000005E-13, 3.67188E-07, -3.6623399999999997E-07, 590.06012148069965
DataValue, 1.68, 0.1, 0, 3.04E-13, 4.0527E-07, -4.04304E-07, 625.51169308494821
DataValue, 1.74, 0.1, 0, 2.6400000000000004E-13, 4.44841E-07, -4.43747E-07, 664.51614192126215
DataValue, 1.8, 0.1, 0, 2.9000000000000003E-13, 4.85479E-07, -4.84348E-07, 703.96022114575476
DataValue, 1.86, 0.1, 0, 3.07E-13, 5.27517E-07, -5.2632E-07, 742.9622790466309
DataValue, 1.92, 0.1, 0, 3.0100000000000003E-13, 5.7057899999999994E-07, -5.69343E-07, 782.53965134355428
DataValue, 1.98, 0.1, 0, 3.0900000000000005E-13, 6.14942E-07, -6.13579E-07, 823.35154733611466
DataValue, 2.04, 0.1, 0, 2.92E-13, 6.6010399999999994E-07, -6.58651E-07, 865.5097603608167
DataValue, 2.1, 0.1, 0, 3.52E-13, 7.06395E-07, -7.04807E-07, 908.84563315837647
DataValue, 2.16, 0.1, 0, 3.5600000000000005E-13, 7.53277E-07, -7.51661E-07, 952.60979380454671
DataValue, 2.22, 0.1, 0, 2.92E-13, 8.01227E-07, -7.99506E-07, 994.0181011389526
DataValue, 2.2800000000000002, 0.1, 0, 3.2400000000000003E-13, 8.49931E-07, -8.48123E-07, 1040.2815053210738
DataValue, 2.34, 0.1, 0, 3.3600000000000003E-13, 8.99193E-07, -8.97283E-07, 1086.1575367700459
DataValue, 2.4, 0.1, 0, 3.2500000000000003E-13, 9.49216E-07, -9.4721299999999995E-07, 1131.7598753898958
DataValue, 2.46, 0.1, 0, 3.14E-13, 9.99772E-07, -9.97647E-07, 1179.4864429321619
DataValue, 2.52, 0.1, 0, 3.4600000000000004E-13, 1.050872E-06, -1.048699E-06, 1226.8435522822424
DataValue, 2.58, 0.1, 0, 3.5900000000000004E-13, 1.102504E-06, -1.10012E-06, 1300.2890941577439
DataValue, 2.64, 0.1, 0, 3.1000000000000004E-13, 1.1524700000000002E-06, -1.14931E-06, 1360.0586428578338
DataValue, 2.7, 0.1, 0, 3.31E-13, 1.2042E-06, -1.2017500000000002E-06, 1379.63446758351
DataValue, 2.7600000000000002, 0.1, 0, 3.29E-13, 1.2572000000000002E-06, -1.2547300000000002E-06, 1416.5078225716941
DataValue, 2.82, 0.1, 0, 3.19E-13, 1.3106600000000002E-06, -1.3080300000000002E-06, 1468.3365852108964
DataValue, 2.88, 0.1, 0, 3.05E-13, 1.3642600000000002E-06, -1.3615300000000002E-06, 1520.6419022540733
DataValue, 2.94, 0.1, 0, 3.4E-13, 1.4182800000000001E-06, -1.4154200000000002E-06, 1571.5801604408446
DataValue, 3, 0.1, 0, 3.64E-13, 1.4725100000000002E-06, -1.46953E-06, 1598.9954955936396
DataValue, -3, 0.8, 0, -2.8860000000000004E-12, 7.27E-13, 3.6900000000000004E-13, -106.10475764335752
DataValue, -2.94, 0.8, 0, -1.466E-12, 4.13E-13, 2.7500000000000004E-13, -191.10680108550955
DataValue, -2.88, 0.8, 0, -1.184E-12, 3.88E-13, 2.06E-13, -287.32499772766465
DataValue, -2.82, 0.8, 0, -9.97E-13, 2.72E-13, 1.82E-13, -195.47227284274544
DataValue, -2.7600000000000002, 0.8, 0, -8.3800000000000006E-13, 2.1000000000000001E-13, 1.42E-13, -355.08851448942107
DataValue, -2.7, 0.8, 0, -7.350000000000001E-13, 1.94E-13, 1.28E-13, -1739.3101260135461
DataValue, -2.64, 0.8, 0, -6.39E-13, 1.9600000000000002E-13, 1.3800000000000002E-13, -352.31480850446678
DataValue, -2.58, 0.8, 0, -5.83E-13, 1.3800000000000002E-13, 1.2100000000000002E-13, -407.45916821017869
DataValue, -2.52, 0.8, 0, -5.4E-13, 1.46E-13, 1.0100000000000001E-13, -424.233960536905
DataValue, -2.46, 0.8, 0, -4.87E-13, 1.0400000000000001E-13, 7.9E-14, -611.88626103734521
DataValue, -2.4, 0.8, 0, -4.4300000000000003E-13, 1.2000000000000002E-13, 1.0200000000000001E-13, -4099.7073003566911
DataValue, -2.34, 0.8, 0, -3.64E-13, 1.0100000000000001E-13, 5.3E-14, -347.98698172140206
DataValue, -2.2800000000000002, 0.8, 0, -3.8000000000000005E-13, 8.5E-14, 7.1E-14, -1454.1748834054529
DataValue, -2.22, 0.8, 0, -3.6000000000000003E-13, 9.3000000000000008E-14, 5.3E-14, 1759.317970382175
DataValue, -2.16, 0.8, 0, -2.96E-13, 9.1E-14, 3.9000000000000004E-14, -187.27199779327543
DataValue, -2.1, 0.8, 0, -2.72E-13, 4.9000000000000006E-14, 3.7E-14, 3699.6756529294421
DataValue, -2.04, 0.8, 0, -2.56E-13, 9.4E-14, 3.2E-14, 258.12639508831722
DataValue, -1.98, 0.8, 0, -2.3000000000000003E-13, 7.8000000000000008E-14, 5E-14, -474.61719341790956
DataValue, -1.92, 0.8, 0, -2.36E-13, 7.3E-14, 3.9000000000000004E-14, -258.12639508831683
DataValue, -1.86, 0.8, 0, -2.18E-13, 4.9000000000000006E-14, -1.2000000000000001E-14, -611.88626103735521
DataValue, -1.8, 0.8, 0, -1.7400000000000002E-13, 6.0000000000000009E-14, 1.4E-14, 209.02725281002947
DataValue, -1.74, 0.8, 0, -1.8400000000000002E-13, 8.7000000000000008E-14, 1.3000000000000001E-14, -1138.9465897235648
DataValue, -1.68, 0.8, 0, -1.63E-13, 5.4000000000000003E-14, 3.5E-14, -354.21872505123082
DataValue, -1.62, 0.8, 0, -2.05E-13, 6.2E-14, 1.8000000000000002E-14, -140.59921476826744
DataValue, -1.56, 0.8, 0, -1.4900000000000002E-13, 2.3000000000000003E-14, 4.6000000000000006E-14, -199.742378795117
DataValue, -1.5, 0.8, 0, -1.1400000000000002E-13, 3.4E-14, 2.9E-14, -89.303339289694875
DataValue, -1.44, 0.8, 0, -1.0800000000000001E-13, 6.0000000000000005E-15, -3.0000000000000002E-15, 1419.1545268661071
DataValue, -1.3800000000000001, 0.8, 0, -1.2100000000000002E-13, 3.7E-14, 3.0000000000000005E-14, 60.22795786102656
DataValue, -1.32, 0.8, 0, -9.5000000000000012E-14, 4.4E-14, -8E-15, -154.30023796551816
DataValue, -1.26, 0.8, 0, -6.4E-14, 1.7E-14, -1.0000000000000002E-14, -50.043886970909561
DataValue, -1.2, 0.8, 0, -6.3000000000000009E-14, 4E-15, 1.6E-14, -275.66050647349027
DataValue, -1.1400000000000001, 0.8, 0, -6.4E-14, 1.1E-14, -3.1E-14, 53.30273049201233
DataValue, -1.08, 0.8, 0, -3.4E-14, 3.8E-14, 2.1000000000000002E-14, -92.358632773388962
DataValue, -1.02, 0.8, 0, -1.2000000000000001E-14, -3.0000000000000002E-15, -3.2E-14, -83.31241367939694
DataValue, -0.96, 0.8, 0, -4E-15, -9.0000000000000011E-15, -1.0000000000000002E-14, 69.18017236715599
DataValue, -0.9, 0.8, 0, 3.0000000000000002E-15, -1.7E-14, 1E-15, 84.8840388526382
DataValue, -0.84, 0.8, 0, 0, -3.7E-14, 1.7E-14, -275.66050647349056
DataValue, -0.78, 0.8, 0, 7E-15, -1.1E-14, -1.8000000000000002E-14, -59.955632825410078
